;$FILEVERSION=2.0
;$STARTTIME=46225.4380293519
;$COLUMNS=N,O,T,I,d,l,D
;
;   Start time: 2026/7/22 –«∆⁄»˝ 10:30:45.736.0
;   Generated by PCAN-View v6.0.0.1040
;   Message   Time    Type ID     Rx/Tx
;   Number    Offset  |    [hex]  |  Data Length
;   |         [ms]    |    |      |  |  Data [hex] ...
;   |         |       |    |      |  |  |
;---+-- ------+------ +- --+----- +- +- +- +- -- -- -- -- -- -- --
      1      4454.115 DT     07DF Rx 8  02 10 03 00 00 00 00 00 
      2      4455.517 DT     07E8 Rx 8  06 50 03 00 19 01 F4 FF 
      3      4516.177 DT     07E0 Rx 8  04 31 01 02 03 00 00 00 
      4      4517.498 DT     07E8 Rx 8  05 71 01 02 03 02 FF FF 
      5      4572.882 DT     07DF Rx 8  02 85 02 00 00 00 00 00 
      6      4574.246 DT     07E8 Rx 8  02 C5 02 FF FF FF FF FF 
      7      4691.389 DT     07E0 Rx 8  03 28 01 03 00 00 00 00 
      8      4692.752 DT     07E8 Rx 8  02 68 01 FF FF FF FF FF 
      9      4696.104 DT     07E0 Rx 8  02 10 02 00 00 00 00 00 
     10      4697.512 DT     07E8 Rx 8  03 7F 10 78 FF FF FF FF 
     11      4720.671 DT     07E8 Rx 8  06 50 02 00 19 01 F4 AA 
     12      4722.074 DT     07E0 Rx 8  02 27 11 00 00 00 00 00 
     13      4725.319 DT     07E8 Rx 8  06 67 11 00 01 01 01 AA 
     14      4725.838 DT     07E0 Rx 8  06 27 12 19 6D A3 DE 00 
     15      4727.001 DT     07E8 Rx 8  03 7F 27 78 AA AA AA AA 
     16      4727.457 DT     07E8 Rx 8  02 67 12 AA AA AA AA AA 
     17      4730.484 DT     07E0 Rx 8  10 13 2E F1 84 20 26 07 
     18      4731.706 DT     07E8 Rx 8  30 00 01 AA AA AA AA AA 
     19      4735.176 DT     07E0 Rx 8  21 22 58 58 58 58 58 58 
     20      4736.877 DT     07E0 Rx 8  22 58 58 00 00 00 00 00 
     21      4749.870 DT     07E8 Rx 8  03 6E F1 84 AA AA AA AA 
     22      4752.828 DT     07E0 Rx 8  10 0B 34 00 44 20 01 64 
     23      4754.059 DT     07E8 Rx 8  30 00 01 AA AA AA AA AA 
     24      4756.512 DT     07E0 Rx 8  21 00 00 00 10 EC 00 00 
     25      4757.856 DT     07E8 Rx 8  04 74 20 04 02 AA AA AA 
     26      4763.218 DT     07E0 Rx 8  14 02 36 01 80 B4 85 B0 
     27      4764.393 DT     07E8 Rx 8  30 00 01 AA AA AA AA AA 
     28      4768.533 DT     07E0 Rx 8  21 00 AF 78 60 00 23 FB 
     29      4770.065 DT     07E0 Rx 8  22 73 7B 68 03 F0 E0 43 
     30      4771.798 DT     07E0 Rx 8  23 BB 60 7B 68 23 F0 E0 
     31      4773.151 DT     07E0 Rx 8  24 43 7B 60 BB 68 B3 F1 
     32      4774.496 DT     07E0 Rx 8  25 80 4F 2F D0 BB 68 B3 
     33      4775.932 DT     07E0 Rx 8  26 F1 80 4F 34 D8 BB 68 
     34      4777.339 DT     07E0 Rx 8  27 B3 F1 00 5F 1D D0 BB 
     35      4778.872 DT     07E0 Rx 8  28 68 B3 F1 00 5F 2C D8 
     36      4780.360 DT     07E0 Rx 8  29 BB 68 00 2B 04 D0 BB 
     37      4781.602 DT     07E0 Rx 8  2A 68 B3 F1 80 5F 09 D0 
     38      4782.831 DT     07E0 Rx 8  2B 24 E0 1A 4B DA 68 7B 
     39      4784.080 DT     07E0 Rx 8  2C 68 13 40 00 2B 20 D0 
     40      4785.306 DT     07E0 Rx 8  2D 01 23 FB 73 1D E0 16 
     41      4786.649 DT     07E0 Rx 8  2E 4B DA 6C 7B 68 13 40 
     42      4787.938 DT     07E0 Rx 8  2F 00 2B 19 D0 01 23 FB 
     43      4789.369 DT     07E0 Rx 8  20 73 16 E0 11 4B D3 F8 
     44      4790.678 DT     07E0 Rx 8  21 8C 20 7B 68 13 40 00 
     45      4791.917 DT     07E0 Rx 8  22 2B 11 D0 01 23 FB 73 
     46      4793.227 DT     07E0 Rx 8  23 0E E0 0C 4B DA 69 7B 
     47      4794.499 DT     07E0 Rx 8  24 68 13 40 00 2B 0A D0 
     48      4795.589 DT     07E0 Rx 8  25 01 23 FB 73 07 E0 00 
     49      4796.895 DT     07E0 Rx 8  26 BF 06 E0 00 BF 04 E0 
     50      4798.049 DT     07E0 Rx 8  27 00 BF 02 E0 00 BF 00 
     51      4799.261 DT     07E0 Rx 8  28 E0 00 BF FB 7B 18 46 
     52      4800.551 DT     07E0 Rx 8  29 14 37 BD 46 5D F8 04 
     53      4801.746 DT     07E0 Rx 8  2A 7B 70 47 00 BF 00 20 
     54      4802.884 DT     07E0 Rx 8  2B 02 40 80 B4 85 B0 00 
     55      4804.136 DT     07E0 Rx 8  2C AF 78 60 7B 68 03 F0 
     56      4805.585 DT     07E0 Rx 8  2D E0 43 FB 60 7B 68 23 
     57      4807.104 DT     07E0 Rx 8  2E F0 E0 43 7B 60 FB 68 
     58      4808.492 DT     07E0 Rx 8  2F B3 F1 00 5F 13 D0 FB 
     59      4809.852 DT     07E0 Rx 8  20 68 B3 F1 00 5F 14 D8 
     60      4811.203 DT     07E0 Rx 8  21 FB 68 00 2B 04 D0 FB 
     61      4812.576 DT     07E0 Rx 8  22 68 B3 F1 80 5F 04 D0 
     62      4813.862 DT     07E0 Rx 8  23 0C E0 09 4A 7B 68 D3 
     63      4815.242 DT     07E0 Rx 8  24 60 09 E0 07 4A 7B 68 
     64      4816.555 DT     07E0 Rx 8  25 D3 64 05 E0 05 4A 7B 
     65      4817.881 DT     07E0 Rx 8  26 68 C2 F8 8C 30 00 E0 
     66      4819.169 DT     07E0 Rx 8  27 00 BF 00 BF 14 37 BD 
     67      4820.477 DT     07E0 Rx 8  28 46 5D F8 04 7B 70 47 
     68      4821.712 DT     07E0 Rx 8  29 00 20 02 40 80 B4 83 
     69      4823.196 DT     07E0 Rx 8  2A B0 00 AF 03 23 FB 71 
     70      4824.552 DT     07E0 Rx 8  2B 13 4B DB 68 C3 F3 00 
     71      4825.925 DT     07E0 Rx 8  2C 03 DB B2 00 2B 02 D0 
     72      4827.296 DT     07E0 Rx 8  2D 00 23 FB 71 15 E0 0E 
     73      4828.937 DT     07E0 Rx 8  2E 4B DB 68 C3 F3 80 03 
     74      4830.299 DT     07E0 Rx 8  2F DB B2 00 2B 02 D0 01 
     75      4831.664 DT     07E0 Rx 8  20 23 FB 71 0B E0 09 4B 
     76      4832.962 DT     07E0 Rx 8  21 DB 68 C3 F3 00 13 DB 
     77      4834.200 DT     07E0 Rx 8  22 B2 00 2B 02 D0 02 23 
     78      4835.432 DT     07E0 Rx 8  23 FB 71 01 E0 03 23 FB 
     79      4836.909 DT     07E0 Rx 8  24 71 FB 79 18 46 0C 37 
     80      4838.195 DT     07E0 Rx 8  25 BD 46 5D F8 04 7B 70 
     81      4839.561 DT     07E0 Rx 8  26 47 00 20 02 40 80 B4 
     82      4840.947 DT     07E0 Rx 8  27 83 B0 00 AF 03 23 FB 
     83      4842.300 DT     07E0 Rx 8  28 71 13 4B DB 68 C3 F3 
     84      4843.859 DT     07E0 Rx 8  29 00 03 DB B2 00 2B 02 
     85      4845.260 DT     07E0 Rx 8  2A D0 00 23 FB 71 15 E0 
     86      4846.595 DT     07E0 Rx 8  2B 0E 4B DB 68 C3 F3 80 
     87      4847.927 DT     07E0 Rx 8  2C 03 DB B2 00 2B 02 D0 
     88      4849.289 DT     07E0 Rx 8  2D 01 23 FB 71 0B E0 09 
     89      4850.892 DT     07E0 Rx 8  2E 4B DB 68 C3 F3 00 13 
     90      4852.253 DT     07E0 Rx 8  2F DB B2 00 2B 02 D0 02 
     91      4853.648 DT     07E0 Rx 8  20 23 FB 71 01 E0 03 23 
     92      4855.006 DT     07E0 Rx 8  21 FB 71 FB 79 18 46 0C 
     93      4856.308 DT     07E0 Rx 8  22 37 BD 46 5D F8 04 7B 
     94      4857.812 DT     07E0 Rx 8  23 70 47 00 20 02 40 80 
     95      4859.113 DT     07E0 Rx 8  24 B4 83 B0 00 AF 03 23 
     96      4860.447 DT     07E0 Rx 8  25 FB 71 13 4B DB 6C C3 
     97      4861.755 DT     07E0 Rx 8  26 F3 00 03 DB B2 00 2B 
     98      4863.117 DT     07E0 Rx 8  27 02 D0 00 23 FB 71 15 
     99      4864.722 DT     07E0 Rx 8  28 E0 0E 4B DB 6C C3 F3 
    100      4866.095 DT     07E0 Rx 8  29 80 03 DB B2 00 2B 02 
    101      4867.335 DT     07E0 Rx 8  2A D0 01 23 FB 71 0B E0 
    102      4868.652 DT     07E0 Rx 8  2B 09 4B DB 6C C3 F3 00 
    103      4870.005 DT     07E0 Rx 8  2C 13 DB B2 00 2B 02 D0 
    104      4871.437 DT     07E0 Rx 8  2D 02 23 FB 71 01 E0 03 
    105      4872.505 DT     07E0 Rx 8  2E 23 FB 71 FB 79 18 46 
    106      4873.786 DT     07E0 Rx 8  2F 0C 37 BD 46 5D F8 04 
    107      4875.079 DT     07E0 Rx 8  20 7B 70 47 00 20 02 40 
    108      4876.319 DT     07E0 Rx 8  21 80 B4 83 B0 00 AF 03 
    109      4877.499 DT     07E0 Rx 8  22 23 FB 71 15 4B D3 F8 
    110      4878.788 DT     07E0 Rx 8  23 8C 30 C3 F3 00 03 DB 
    111      4880.171 DT     07E0 Rx 8  24 B2 00 2B 02 D0 00 23 
    112      4881.533 DT     07E0 Rx 8  25 FB 71 17 E0 0F 4B D3 
    113      4883.088 DT     07E0 Rx 8  26 F8 8C 30 C3 F3 80 03 
    114      4884.440 DT     07E0 Rx 8  27 DB B2 00 2B 02 D0 01 
    115      4886.147 DT     07E0 Rx 8  28 23 FB 71 0C E0 0A 4B 
    116      4887.481 DT     07E0 Rx 8  29 D3 F8 8C 30 C3 F3 00 
    117      4888.813 DT     07E0 Rx 8  2A 13 DB B2 00 2B 02 D0 
    118      4890.049 DT     07E0 Rx 8  2B 02 23 FB 71 01 E0 03 
    119      4891.420 DT     07E0 Rx 8  2C 23 FB 71 FB 79 18 46 
    120      4892.766 DT     07E0 Rx 8  2D 0C 37 BD 46 5D F8 04 
    121      4893.954 DT     07E0 Rx 8  2E 7B 70 47 00 BF 00 20 
    122      4895.297 DT     07E0 Rx 8  2F 02 40 80 B5 84 B0 00 
    123      4896.955 DT     07E0 Rx 8  20 AF 78 60 03 23 FB 73 
    124      4898.332 DT     07E0 Rx 8  21 FF F7 3C FF 03 46 FB 
    125      4899.935 DT     07E0 Rx 8  22 73 06 E0 FF F7 37 FF 
    126      4901.250 DT     07E0 Rx 8  23 03 46 FB 73 7B 68 01 
    127      4902.548 DT     07E0 Rx 8  24 3B 7B 60 FB 7B 00 2B 
    128      4903.945 DT     07E0 Rx 8  25 02 D1 7B 68 00 2B F2 
    129      4905.324 DT     07E0 Rx 8  26 D1 7B 68 00 2B 01 D1 
    130      4906.960 DT     07E0 Rx 8  27 04 23 FB 73 FB 7B 18 
    131      4908.266 DT     07E0 Rx 8  28 46 10 37 BD 46 80 BD 
    132      4909.588 DT     07E0 Rx 8  29 80 B5 84 B0 00 AF 78 
    133      4910.850 DT     07E0 Rx 8  2A 60 03 23 FB 73 FF F7 
    134      4912.148 DT     07E0 Rx 8  2B 48 FF 03 46 FB 73 06 
    135      4913.755 DT     07E0 Rx 8  2C E0 FF F7 43 FF 03 46 
    136      4914.919 DT     07E0 Rx 8  2D FB 73 7B 68 01 3B 7B 
    137      4916.398 DT     07E0 Rx 8  2E 60 FB 7B 00 2B 02 D1 
    138      4917.772 DT     07E0 Rx 8  2F 7B 68 00 2B F2 D1 7B 
    139      4919.144 DT     07E0 Rx 8  20 68 00 2B 01 D1 04 23 
    140      4920.701 DT     07E0 Rx 8  21 FB 73 FB 7B 18 46 10 
    141      4921.679 DT     07E0 Rx 8  22 37 BD 46 80 BD 80 B5 
    142      4922.980 DT     07E0 Rx 8  23 84 B0 00 AF 78 60 03 
    143      4924.274 DT     07E0 Rx 8  24 23 FB 73 FF F7 54 FF 
    144      4925.635 DT     07E0 Rx 8  25 03 46 FB 73 06 E0 FF 
    145      4927.000 DT     07E0 Rx 8  26 F7 4F FF 03 46 FB 73 
    146      4928.311 DT     07E0 Rx 8  27 7B 68 01 3B 7B 60 FB 
    147      4929.568 DT     07E0 Rx 8  28 7B 00 2B 02 D1 7B 68 
    148      4930.636 DT     07E0 Rx 8  29 00 2B F2 D1 7B 68 00 
    149      4932.175 DT     07E0 Rx 8  2A 2B 01 D1 04 23 FB 73 
    150      4933.451 DT     07E0 Rx 8  2B FB 7B 18 46 10 37 BD 
    151      4934.965 DT     07E0 Rx 8  2C 46 80 BD 80 B5 84 B0 
    152      4936.214 DT     07E0 Rx 8  2D 00 AF 78 60 03 23 FB 
    153      4937.531 DT     07E0 Rx 8  2E 73 FF F7 60 FF 03 46 
    154      4938.827 DT     07E0 Rx 8  2F FB 73 06 E0 FF F7 5B 
    155      4940.021 DT     07E0 Rx 8  20 FF 03 46 FB 73 7B 68 
    156      4941.325 DT     07E0 Rx 8  21 01 3B 7B 60 FB 7B 00 
    157      4942.573 DT     07E0 Rx 8  22 2B 02 D1 7B 68 00 2B 
    158      4943.898 DT     07E0 Rx 8  23 F2 D1 7B 68 00 2B 01 
    159      4945.190 DT     07E0 Rx 8  24 D1 04 23 FB 73 FB 7B 
    160      4946.500 DT     07E0 Rx 8  25 18 46 10 37 BD 46 80 
    161      4947.883 DT     07E0 Rx 8  26 BD 80 B4 00 AF 08 4B 
    162      4949.156 DT     07E0 Rx 8  27 09 4A 5A 60 07 4B 08 
    163      4950.392 DT     07E0 Rx 8  28 4A 5A 60 05 4B 06 4A 
    164      4951.688 DT     07E0 Rx 8  29 5A 64 04 4B 05 4A 5A 
    165      4952.978 DT     07E0 Rx 8  2A 64 00 BF BD 46 5D F8 
    166      4954.304 DT     07E0 Rx 8  2B 04 7B 70 47 00 BF 00 
    167      4955.689 DT     07E0 Rx 8  2C 20 02 40 23 01 67 45 
    168      4957.072 DT     07E0 Rx 8  2D AB 89 EF CD 80 B4 00 
    169      4958.515 DT     07E0 Rx 8  2E AF 05 4B 06 4A 5A 60 
    170      4959.889 DT     07E0 Rx 8  2F 04 4B 05 4A 5A 60 00 
    171      4961.421 DT     07E0 Rx 8  20 BF BD 46 5D F8 04 7B 
    172      4962.638 DT     07E0 Rx 8  21 70 47 00 BF 00 20 02 
    173      4964.013 DT     07E0 Rx 8  22 40 23 01 67 45 00 00 
    174      4965.159 DT     07E8 Rx 8  03 7F 36 78 AA AA AA AA 
    175      4968.003 DT     07E8 Rx 8  04 76 01 04 02 AA AA AA 
    176      4968.495 DT     07E0 Rx 8  14 02 36 02 AB 89 EF CD 
    177      4969.714 DT     07E8 Rx 8  30 00 01 AA AA AA AA AA 
    178      4971.339 DT     07E0 Rx 8  21 80 B4 00 AF 05 4B 06 
    179      4973.068 DT     07E0 Rx 8  22 4A 5A 64 04 4B 05 4A 
    180      4974.535 DT     07E0 Rx 8  23 5A 64 00 BF BD 46 5D 
    181      4975.957 DT     07E0 Rx 8  24 F8 04 7B 70 47 00 BF 
    182      4977.385 DT     07E0 Rx 8  25 00 20 02 40 23 01 67 
    183      4978.852 DT     07E0 Rx 8  26 45 AB 89 EF CD 80 B4 
    184      4980.176 DT     07E0 Rx 8  27 00 AF 07 4B 08 4A C3 
    185      4981.587 DT     07E0 Rx 8  28 F8 84 20 05 4B 07 4A 
    186      4983.114 DT     07E0 Rx 8  29 C3 F8 84 20 06 4B 1B 
    187      4984.662 DT     07E0 Rx 8  2A 68 00 BF BD 46 5D F8 
    188      4986.065 DT     07E0 Rx 8  2B 04 7B 70 47 00 BF 00 
    189      4987.464 DT     07E0 Rx 8  2C 20 02 40 23 01 67 45 
    190      4989.040 DT     07E0 Rx 8  2D AB 89 EF CD 00 F8 FF 
    191      4990.598 DT     07E0 Rx 8  2E 1F 80 B4 00 AF 07 4A 
    192      4992.029 DT     07E0 Rx 8  2F 13 69 43 F0 80 03 13 
    193      4993.359 DT     07E0 Rx 8  20 61 05 4A 13 6D 43 F0 
    194      4995.083 DT     07E0 Rx 8  21 80 03 13 65 00 BF BD 
    195      4996.700 DT     07E0 Rx 8  22 46 5D F8 04 7B 70 47 
    196      4997.988 DT     07E0 Rx 8  23 00 BF 00 20 02 40 80 
    197      4999.680 DT     07E0 Rx 8  24 B4 00 AF 04 4A 13 69 
    198      5000.993 DT     07E0 Rx 8  25 43 F0 80 03 13 61 00 
    199      5002.532 DT     07E0 Rx 8  26 BF BD 46 5D F8 04 7B 
    200      5004.066 DT     07E0 Rx 8  27 70 47 00 20 02 40 80 
    201      5005.628 DT     07E0 Rx 8  28 B4 00 AF 04 4A 13 6D 
    202      5006.982 DT     07E0 Rx 8  29 43 F0 80 03 13 65 00 
    203      5008.409 DT     07E0 Rx 8  2A BF BD 46 5D F8 04 7B 
    204      5009.766 DT     07E0 Rx 8  2B 70 47 00 20 02 40 80 
    205      5011.075 DT     07E0 Rx 8  2C B4 00 AF 05 4A D2 F8 
    206      5012.441 DT     07E0 Rx 8  2D 90 30 43 F0 80 03 C2 
    207      5013.768 DT     07E0 Rx 8  2E F8 90 30 00 BF BD 46 
    208      5015.191 DT     07E0 Rx 8  2F 5D F8 04 7B 70 47 00 
    209      5016.531 DT     07E0 Rx 8  20 20 02 40 80 B5 84 B0 
    210      5017.883 DT     07E0 Rx 8  21 00 AF 78 60 03 23 FB 
    211      5019.260 DT     07E0 Rx 8  22 73 7B 68 B3 F1 00 6F 
    212      5020.576 DT     07E0 Rx 8  23 1C D3 7B 68 33 4A 93 
    213      5021.968 DT     07E0 Rx 8  24 42 18 D8 32 4A 13 69 
    214      5024.330 DT     07E0 Rx 8  25 43 F0 02 03 13 61 30 
    215      5025.958 DT     07E0 Rx 8  26 4A 7B 68 53 61 2E 4A 
    216      5027.439 DT     07E0 Rx 8  27 13 69 43 F0 40 03 13 
    217      5028.830 DT     07E0 Rx 8  28 61 4F F0 80 40 FF F7 
    218      5030.309 DT     07E0 Rx 8  29 DF FE 03 46 FB 73 29 
    219      5031.728 DT     07E0 Rx 8  2A 4A 13 69 6F F3 41 03 
    220      5032.964 DT     07E0 Rx 8  2B 13 61 45 E0 7B 68 24 
    221      5034.413 DT     07E0 Rx 8  2C 4A 93 42 1C D9 7B 68 
    222      5035.805 DT     07E0 Rx 8  2D B3 F1 01 6F 18 D2 22 
    223      5037.324 DT     07E0 Rx 8  2E 4A 13 6D 43 F0 02 03 
    224      5038.628 DT     07E0 Rx 8  2F 13 65 1F 4A 7B 68 53 
    225      5039.780 DT     07E0 Rx 8  20 65 1E 4A 13 6D 43 F0 
    226      5041.182 DT     07E0 Rx 8  21 40 03 13 65 4F F0 80 
    227      5042.425 DT     07E0 Rx 8  22 40 FF F7 E0 FE 03 46 
    228      5043.620 DT     07E0 Rx 8  23 FB 73 18 4A 13 6D 6F 
    229      5044.874 DT     07E0 Rx 8  24 F3 41 03 13 65 24 E0 
    230      5046.159 DT     07E0 Rx 8  25 7B 68 B3 F1 04 6F 20 
    231      5047.441 DT     07E0 Rx 8  26 D3 13 4A D2 F8 90 30 
    232      5048.726 DT     07E0 Rx 8  27 43 F0 02 03 C2 F8 90 
    233      5050.274 DT     07E0 Rx 8  28 30 10 4A 7B 68 C2 F8 
    234      5051.722 DT     07E0 Rx 8  29 94 30 0E 4A D2 F8 90 
    235      5053.066 DT     07E0 Rx 8  2A 30 43 F0 40 03 C2 F8 
    236      5054.399 DT     07E0 Rx 8  2B 90 30 4F F0 FF 30 FF 
    237      5055.607 DT     07E0 Rx 8  2C F7 E0 FE 03 46 FB 73 
    238      5056.892 DT     07E0 Rx 8  2D 07 4A D2 F8 90 30 6F 
    239      5058.325 DT     07E0 Rx 8  2E F3 41 03 C2 F8 90 30 
    240      5059.847 DT     07E0 Rx 8  2F 00 F0 1D FC FB 7B 18 
    241      5061.499 DT     07E0 Rx 8  20 46 10 37 BD 46 80 BD 
    242      5062.855 DT     07E0 Rx 8  21 FF FF 07 08 00 20 02 
    243      5064.263 DT     07E0 Rx 8  22 40 80 B5 82 B0 00 AF 
    244      5065.620 DT     07E0 Rx 8  23 03 23 FB 71 19 4A 13 
    245      5067.134 DT     07E0 Rx 8  24 69 43 F0 04 03 13 61 
    246      5068.553 DT     07E0 Rx 8  25 16 4A 13 69 43 F0 40 
    247      5069.958 DT     07E0 Rx 8  26 03 13 61 4F F0 80 40 
    248      5071.364 DT     07E0 Rx 8  27 FF F7 75 FE 03 46 FB 
    249      5072.697 DT     07E0 Rx 8  28 71 11 4A 13 69 6F F3 
    250      5074.146 DT     07E0 Rx 8  29 82 03 13 61 FB 79 03 
    251      5075.444 DT     07E0 Rx 8  2A 2B 14 D1 0D 4A 13 6D 
    252      5076.880 DT     07E0 Rx 8  2B 43 F0 04 03 13 65 0A 
    253      5078.256 DT     07E0 Rx 8  2C 4A 13 6D 43 F0 40 03 
    254      5079.603 DT     07E0 Rx 8  2D 13 65 4F F0 80 40 FF 
    255      5080.954 DT     07E0 Rx 8  2E F7 7F FE 03 46 FB 71 
    256      5082.282 DT     07E0 Rx 8  2F 05 4A 13 6D 6F F3 82 
    257      5083.650 DT     07E0 Rx 8  20 03 13 65 FB 79 18 46 
    258      5085.017 DT     07E0 Rx 8  21 08 37 BD 46 80 BD 00 
    259      5086.473 DT     07E0 Rx 8  22 BF 00 20 02 40 80 B5 
    260      5087.869 DT     07E0 Rx 8  23 82 B0 00 AF 03 23 FB 
    261      5089.181 DT     07E0 Rx 8  24 71 0D 4A 13 69 43 F0 
    262      5090.383 DT     07E0 Rx 8  25 04 03 13 61 0A 4A 13 
    263      5091.774 DT     07E0 Rx 8  26 69 43 F0 40 03 13 61 
    264      5093.122 DT     07E0 Rx 8  27 4F F0 80 40 FF F7 3B 
    265      5094.499 DT     07E0 Rx 8  28 FE 03 46 FB 71 05 4A 
    266      5095.909 DT     07E0 Rx 8  29 13 69 6F F3 82 03 13 
    267      5097.224 DT     07E0 Rx 8  2A 61 FB 79 18 46 08 37 
    268      5098.645 DT     07E0 Rx 8  2B BD 46 80 BD 00 BF 00 
    269      5099.772 DT     07E0 Rx 8  2C 20 02 40 80 B5 82 B0 
    270      5101.225 DT     07E0 Rx 8  2D 00 AF 03 23 FB 71 0D 
    271      5102.873 DT     07E0 Rx 8  2E 4A 13 6D 43 F0 04 03 
    272      5104.260 DT     07E0 Rx 8  2F 13 65 0A 4A 13 6D 43 
    273      5105.773 DT     07E0 Rx 8  20 F0 40 03 13 65 4F F0 
    274      5106.956 DT     07E0 Rx 8  21 80 40 FF F7 3B FE 03 
    275      5108.539 DT     07E0 Rx 8  22 46 FB 71 05 4A 13 6D 
    276      5110.088 DT     07E0 Rx 8  23 6F F3 82 03 13 65 FB 
    277      5111.445 DT     07E0 Rx 8  24 79 18 46 08 37 BD 46 
    278      5112.815 DT     07E0 Rx 8  25 80 BD 00 BF 00 20 02 
    279      5114.194 DT     07E0 Rx 8  26 40 80 B5 82 B0 00 AF 
    280      5115.822 DT     07E0 Rx 8  27 03 23 FB 71 11 4A D2 
    281      5117.163 DT     07E0 Rx 8  28 F8 90 30 43 F0 04 03 
    282      5118.421 DT     07E0 Rx 8  29 C2 F8 90 30 0D 4A D2 
    283      5119.917 DT     07E0 Rx 8  2A F8 90 30 43 F0 40 03 
    284      5122.225 DT     07E0 Rx 8  2B C2 F8 90 30 4F F0 FF 
    285      5125.073 DT     07E0 Rx 8  2C 30 FF F7 37 FE 03 46 
    286      5128.126 DT     07E0 Rx 8  2D FB 71 07 4A D2 F8 90 
    287      5129.492 DT     07E0 Rx 8  2E 30 6F F3 82 03 C2 F8 
    288      5132.868 DT     07E0 Rx 8  2F 90 30 00 F0 74 FB FB 
    289      5135.202 DT     07E0 Rx 8  20 79 18 46 08 37 BD 46 
    290      5138.162 DT     07E0 Rx 8  21 80 BD 00 BF 00 20 02 
    291      5141.449 DT     07E0 Rx 8  22 40 80 B5 82 B0 00 AF 
    292      5144.177 DT     07E0 Rx 8  23 03 23 FB 71 A5 23 BB 
    293      5145.379 DT     07E0 Rx 8  24 80 00 F0 85 FA 03 46 
    294      5147.106 DT     07E0 Rx 8  25 00 2B 01 D0 00 23 BB 
    295      5149.314 DT     07E0 Rx 8  26 80 20 4B 21 4A 9A 60 
    296      5152.076 DT     07E0 Rx 8  27 1F 4B 20 4A 9A 60 00 
    297      5153.661 DT     07E0 Rx 8  28 BF 1D 4B 1B 69 C3 F3 
    298      5155.531 DT     07E0 Rx 8  29 40 23 DB B2 00 2B F8 
    299      5156.828 DT     07E0 Rx 8  2A D0 19 4A 13 69 43 F0 
    300      5158.181 DT     07E0 Rx 8  2B 20 03 13 61 17 4A 13 
    301      5159.597 DT     07E0 Rx 8  2C 69 43 F0 40 03 13 61 
    302      5161.383 DT     07E0 Rx 8  2D 4F F0 80 40 FF F7 94 
    303      5165.048 DT     07E0 Rx 8  2E FD 03 46 FB 71 11 4A 
    304      5167.898 DT     07E0 Rx 8  2F 13 69 6F F3 45 13 13 
    305      5169.607 DT     07E0 Rx 8  20 61 FB 79 03 2B 15 D1 
    306      5171.176 DT     07E0 Rx 8  21 BB 88 A5 2B 12 D1 0C 
    307      5172.527 DT     07E0 Rx 8  22 4A 13 69 43 F0 10 03 
    308      5173.870 DT     07E0 Rx 8  23 13 61 0C 4A BB 88 13 
    309      5177.953 DT     07E0 Rx 8  24 80 4F F4 80 10 FF F7 
    310      5179.933 DT     07E0 Rx 8  25 7B FD 03 46 FB 71 05 
    311      5182.721 DT     07E0 Rx 8  26 4A 13 69 6F F3 04 13 
    312      5184.828 DT     07E0 Rx 8  27 13 61 FB 79 18 46 08 
    313      5191.960 DT     07E0 Rx 8  28 37 BD 46 80 BD 00 BF 
    314      5193.583 DT     07E0 Rx 8  29 00 20 02 40 23 01 67 
    315      5201.634 DT     07E0 Rx 8  2A 45 AB 89 EF CD 00 F8 
    316      5202.865 DT     07E0 Rx 8  2B FF 1F 80 B5 84 B0 00 
    317      5204.582 DT     07E0 Rx 8  2C AF 78 60 39 60 03 23 
    318      5206.954 DT     07E0 Rx 8  2D FB 73 7B 68 B3 F1 00 
    319      5209.661 DT     07E0 Rx 8  2E 6F 17 D3 7B 68 2A 4A 
    320      5212.319 DT     07E0 Rx 8  2F 93 42 13 D8 2A 4A 13 
    321      5218.103 DT     07E0 Rx 8  20 69 43 F0 01 03 13 61 
    322      5222.850 DT     07E0 Rx 8  21 7B 68 3A 68 1A 60 4F 
    323      5224.143 DT     07E0 Rx 8  22 F4 80 10 FF F7 00 00 
    324      5225.287 DT     07E8 Rx 8  03 7F 36 78 AA AA AA AA 
    325      5228.143 DT     07E8 Rx 8  04 76 02 04 02 AA AA AA 
    326      5230.489 DT     07E0 Rx 8  14 02 36 03 6D FD 03 46 
    327      5231.685 DT     07E8 Rx 8  30 00 01 AA AA AA AA AA 
    328      5234.944 DT     07E0 Rx 8  21 FB 73 23 4A 13 69 6F 
    329      5237.697 DT     07E0 Rx 8  22 F3 00 03 13 61 38 E0 
    330      5239.273 DT     07E0 Rx 8  23 7B 68 1E 4A 93 42 17 
    331      5240.615 DT     07E0 Rx 8  24 D9 7B 68 B3 F1 01 6F 
    332      5242.534 DT     07E0 Rx 8  25 13 D2 1C 4A 13 6D 43 
    333      5244.305 DT     07E0 Rx 8  26 F0 01 03 13 65 7B 68 
    334      5245.911 DT     07E0 Rx 8  27 3A 68 1A 60 4F F4 80 
    335      5248.029 DT     07E0 Rx 8  28 10 FF F7 73 FD 03 46 
    336      5250.040 DT     07E0 Rx 8  29 FB 73 15 4A 13 6D 6F 
    337      5251.659 DT     07E0 Rx 8  2A F3 00 03 13 65 1C E0 
    338      5252.964 DT     07E0 Rx 8  2B 7B 68 B3 F1 04 6F 18 
    339      5254.573 DT     07E0 Rx 8  2C D3 10 4A D2 F8 90 30 
    340      5255.972 DT     07E0 Rx 8  2D 43 F0 01 03 C2 F8 90 
    341      5257.693 DT     07E0 Rx 8  2E 30 7B 68 3A 68 1A 60 
    342      5260.238 DT     07E0 Rx 8  2F 4F F4 80 10 FF F7 7B 
    343      5261.710 DT     07E0 Rx 8  20 FD 03 46 FB 73 08 4A 
    344      5263.136 DT     07E0 Rx 8  21 D2 F8 90 30 6F F3 00 
    345      5264.666 DT     07E0 Rx 8  22 03 C2 F8 90 30 00 F0 
    346      5266.088 DT     07E0 Rx 8  23 B8 FA FB 7B 18 46 10 
    347      5267.506 DT     07E0 Rx 8  24 37 BD 46 80 BD 00 BF 
    348      5268.704 DT     07E0 Rx 8  25 FF FF 07 08 00 20 02 
    349      5269.992 DT     07E0 Rx 8  26 40 80 B5 84 B0 00 AF 
    350      5271.226 DT     07E0 Rx 8  27 78 60 0B 46 7B 80 03 
    351      5272.635 DT     07E0 Rx 8  28 23 FB 73 7B 68 B3 F1 
    352      5274.736 DT     07E0 Rx 8  29 00 6F 17 D3 7B 68 2A 
    353      5276.168 DT     07E0 Rx 8  2A 4A 93 42 13 D8 29 4A 
    354      5277.322 DT     07E0 Rx 8  2B 13 69 43 F0 01 03 13 
    355      5278.716 DT     07E0 Rx 8  2C 61 7B 68 7A 88 1A 80 
    356      5280.065 DT     07E0 Rx 8  2D 4F F4 80 10 FF F7 06 
    357      5281.330 DT     07E0 Rx 8  2E FD 03 46 FB 73 22 4A 
    358      5282.688 DT     07E0 Rx 8  2F 13 69 6F F3 00 03 13 
    359      5284.083 DT     07E0 Rx 8  20 61 38 E0 7B 68 1E 4A 
    360      5285.448 DT     07E0 Rx 8  21 93 42 17 D9 7B 68 B3 
    361      5286.809 DT     07E0 Rx 8  22 F1 01 6F 13 D2 1B 4A 
    362      5288.117 DT     07E0 Rx 8  23 13 6D 43 F0 01 03 13 
    363      5289.523 DT     07E0 Rx 8  24 65 7B 68 7A 88 1A 80 
    364      5290.799 DT     07E0 Rx 8  25 4F F4 80 10 FF F7 0C 
    365      5292.082 DT     07E0 Rx 8  26 FD 03 46 FB 73 14 4A 
    366      5293.441 DT     07E0 Rx 8  27 13 6D 6F F3 00 03 13 
    367      5294.776 DT     07E0 Rx 8  28 65 1C E0 7B 68 B3 F1 
    368      5296.012 DT     07E0 Rx 8  29 04 6F 18 D3 0F 4A D2 
    369      5297.325 DT     07E0 Rx 8  2A F8 90 30 43 F0 01 03 
    370      5298.688 DT     07E0 Rx 8  2B C2 F8 90 30 7B 68 7A 
    371      5299.986 DT     07E0 Rx 8  2C 88 1A 80 4F F4 80 10 
    372      5301.334 DT     07E0 Rx 8  2D FF F7 14 FD 03 46 FB 
    373      5302.596 DT     07E0 Rx 8  2E 73 07 4A D2 F8 90 30 
    374      5303.937 DT     07E0 Rx 8  2F 6F F3 00 03 C2 F8 90 
    375      5305.271 DT     07E0 Rx 8  20 30 00 F0 51 FA FB 7B 
    376      5306.710 DT     07E0 Rx 8  21 18 46 10 37 BD 46 80 
    377      5308.231 DT     07E0 Rx 8  22 BD FF FF 07 08 00 20 
    378      5309.596 DT     07E0 Rx 8  23 02 40 80 B5 84 B0 00 
    379      5310.896 DT     07E0 Rx 8  24 AF 78 60 0B 46 FB 70 
    380      5312.205 DT     07E0 Rx 8  25 03 23 FB 73 7B 68 B3 
    381      5313.456 DT     07E0 Rx 8  26 F1 00 6F 17 D3 7B 68 
    382      5314.688 DT     07E0 Rx 8  27 1B 4A 93 42 13 D8 1A 
    383      5315.918 DT     07E0 Rx 8  28 4A 13 69 43 F0 01 03 
    384      5317.430 DT     07E0 Rx 8  29 13 61 7B 68 FA 78 1A 
    385      5318.859 DT     07E0 Rx 8  2A 70 4F F4 80 10 FF F7 
    386      5320.816 DT     07E0 Rx 8  2B A0 FC 03 46 FB 73 13 
    387      5322.183 DT     07E0 Rx 8  2C 4A 13 69 6F F3 00 03 
    388      5323.704 DT     07E0 Rx 8  2D 13 61 1A E0 7B 68 0F 
    389      5325.132 DT     07E0 Rx 8  2E 4A 93 42 16 D9 7B 68 
    390      5326.346 DT     07E0 Rx 8  2F B3 F1 01 6F 12 D2 0C 
    391      5328.159 DT     07E0 Rx 8  20 4A 13 6D 43 F0 01 03 
    392      5329.445 DT     07E0 Rx 8  21 13 65 7B 68 FA 78 1A 
    393      5331.273 DT     07E0 Rx 8  22 70 4F F4 80 10 FF F7 
    394      5332.307 DT     07E0 Rx 8  23 A6 FC 03 46 FB 73 05 
    395      5333.565 DT     07E0 Rx 8  24 4A 13 6D 6F F3 00 03 
    396      5334.784 DT     07E0 Rx 8  25 13 65 FB 7B 18 46 10 
    397      5336.091 DT     07E0 Rx 8  26 37 BD 46 80 BD FF FF 
    398      5337.367 DT     07E0 Rx 8  27 07 08 00 20 02 40 80 
    399      5338.988 DT     07E0 Rx 8  28 B5 84 B0 00 AF 78 60 
    400      5340.321 DT     07E0 Rx 8  29 0B 46 FB 70 03 23 FB 
    401      5341.653 DT     07E0 Rx 8  2A 73 7B 68 17 4A 93 42 
    402      5342.984 DT     07E0 Rx 8  2B 04 D1 FB 78 A5 2B 01 
    403      5344.749 DT     07E0 Rx 8  2C D0 03 23 22 E0 14 4B 
    404      5346.304 DT     07E0 Rx 8  2D 14 4A 9A 60 12 4B 14 
    405      5347.762 DT     07E0 Rx 8  2E 4A 9A 60 00 BF 10 4B 
    406      5349.120 DT     07E0 Rx 8  2F 1B 69 C3 F3 40 23 DB 
    407      5350.383 DT     07E0 Rx 8  20 B2 00 2B F8 D0 0D 4A 
    408      5351.706 DT     07E0 Rx 8  21 13 69 43 F0 10 03 13 
    409      5352.940 DT     07E0 Rx 8  22 61 7B 68 FA 78 92 B2 
    410      5354.292 DT     07E0 Rx 8  23 1A 80 4F F4 80 10 FF 
    411      5355.862 DT     07E0 Rx 8  24 F7 26 FC 03 46 FB 73 
    412      5357.158 DT     07E0 Rx 8  25 05 4A 13 69 6F F3 04 
    413      5358.399 DT     07E0 Rx 8  26 13 13 61 FB 7B 18 46 
    414      5359.756 DT     07E0 Rx 8  27 10 37 BD 46 80 BD 00 
    415      5361.022 DT     07E0 Rx 8  28 F8 FF 1F 00 20 02 40 
    416      5362.304 DT     07E0 Rx 8  29 23 01 67 45 AB 89 EF 
    417      5363.539 DT     07E0 Rx 8  2A CD 80 B5 86 B0 00 AF 
    418      5364.692 DT     07E0 Rx 8  2B 78 60 39 4A 07 F1 0C 
    419      5365.947 DT     07E0 Rx 8  2C 03 92 E8 03 00 83 E8 
    420      5367.014 DT     07E0 Rx 8  2D 03 00 03 23 FB 75 7B 
    421      5368.401 DT     07E0 Rx 8  2E 68 1B 68 DA 43 7B 68 
    422      5369.684 DT     07E0 Rx 8  2F 1A 60 7B 68 1B 68 9B 
    423      5370.936 DT     07E0 Rx 8  20 B2 DB B2 9B B2 BB 81 
    424      5372.192 DT     07E0 Rx 8  21 7B 68 1B 68 1B 0A 9B 
    425      5373.535 DT     07E0 Rx 8  22 B2 DB B2 9B B2 FB 81 
    426      5374.786 DT     07E0 Rx 8  23 7B 68 1B 68 1B 0C 9B 
    427      5376.000 DT     07E0 Rx 8  24 B2 DB B2 9B B2 3B 82 
    428      5377.166 DT     07E0 Rx 8  25 7B 68 1B 68 1B 0E 9B 
    429      5378.480 DT     07E0 Rx 8  26 B2 DB B2 9B B2 7B 82 
    430      5379.735 DT     07E0 Rx 8  27 26 4B 26 4A 9A 60 24 
    431      5381.031 DT     07E0 Rx 8  28 4B 26 4A 9A 60 00 BF 
    432      5382.475 DT     07E0 Rx 8  29 22 4B 1B 69 C3 F3 40 
    433      5383.819 DT     07E0 Rx 8  2A 23 DB B2 00 2B F8 D0 
    434      5385.119 DT     07E0 Rx 8  2B 1F 4A 13 69 43 F0 10 
    435      5386.443 DT     07E0 Rx 8  2C 03 13 61 1F 4B BA 89 
    436      5387.746 DT     07E0 Rx 8  2D 1A 81 4F F4 80 10 FF 
    437      5388.976 DT     07E0 Rx 8  2E F7 CB FB 03 46 FB 75 
    438      5390.286 DT     07E0 Rx 8  2F FB 7D 03 2B 08 D1 19 
    439      5391.600 DT     07E0 Rx 8  20 4B FA 89 5A 81 4F F4 
    440      5392.899 DT     07E0 Rx 8  21 80 10 FF F7 BF FB 03 
    441      5394.271 DT     07E0 Rx 8  22 46 FB 75 FB 7D 03 2B 
    442      5395.514 DT     07E0 Rx 8  23 08 D1 13 4B 3A 8A 9A 
    443      5396.872 DT     07E0 Rx 8  24 81 4F F4 80 10 FF F7 
    444      5398.142 DT     07E0 Rx 8  25 B3 FB 03 46 FB 75 FB 
    445      5399.422 DT     07E0 Rx 8  26 7D 03 2B 08 D1 0D 4B 
    446      5400.660 DT     07E0 Rx 8  27 7A 8A DA 81 4F F4 80 
    447      5401.936 DT     07E0 Rx 8  28 10 FF F7 A7 FB 03 46 
    448      5403.166 DT     07E0 Rx 8  29 FB 75 06 4A 13 69 6F 
    449      5404.416 DT     07E0 Rx 8  2A F3 04 13 13 61 FB 7D 
    450      5405.647 DT     07E0 Rx 8  2B 18 46 18 37 BD 46 80 
    451      5406.992 DT     07E0 Rx 8  2C BD 00 BF 74 A3 00 08 
    452      5408.297 DT     07E0 Rx 8  2D 00 20 02 40 23 01 67 
    453      5409.616 DT     07E0 Rx 8  2E 45 AB 89 EF CD 00 F8 
    454      5410.948 DT     07E0 Rx 8  2F FF 1F 80 B4 83 B0 00 
    455      5412.221 DT     07E0 Rx 8  20 AF 78 60 04 4B 1A 6A 
    456      5413.572 DT     07E0 Rx 8  21 7B 68 1A 60 00 BF 0C 
    457      5414.908 DT     07E0 Rx 8  22 37 BD 46 5D F8 04 7B 
    458      5416.152 DT     07E0 Rx 8  23 70 47 00 20 02 40 80 
    459      5417.396 DT     07E0 Rx 8  24 B5 84 B0 00 AF 03 46 
    460      5418.697 DT     07E0 Rx 8  25 FB 71 03 23 FB 73 20 
    461      5419.993 DT     07E0 Rx 8  26 4B 20 4A 9A 60 1E 4B 
    462      5421.339 DT     07E0 Rx 8  27 20 4A 9A 60 00 BF 1C 
    463      5422.635 DT     07E0 Rx 8  28 4B 1B 69 C3 F3 40 23 
    464      5423.836 DT     07E0 Rx 8  29 DB B2 00 2B F8 D0 19 
    465      5425.086 DT     07E0 Rx 8  2A 4A 13 69 43 F0 20 03 
    466      5426.583 DT     07E0 Rx 8  2B 13 61 16 4A 13 69 43 
    467      5427.995 DT     07E0 Rx 8  2C F0 40 03 13 61 4F F0 
    468      5429.549 DT     07E0 Rx 8  2D 80 40 FF F7 5D FB 03 
    469      5431.000 DT     07E0 Rx 8  2E 46 FB 73 11 4A 13 69 
    470      5432.358 DT     07E0 Rx 8  2F 6F F3 45 13 13 61 FB 
    471      5433.701 DT     07E0 Rx 8  20 7B 03 2B 15 D1 FB 79 
    472      5435.070 DT     07E0 Rx 8  21 00 2B 12 D1 0B 4A 13 
    473      5436.516 DT     07E0 Rx 8  22 69 43 F0 10 03 00 00 
    474      5437.791 DT     07E8 Rx 8  03 7F 36 78 AA AA AA AA 
    475      5440.643 DT     07E8 Rx 8  04 76 03 04 02 AA AA AA 
    476      5441.194 DT     07E0 Rx 8  14 02 36 04 13 61 0C 4B 
    477      5442.504 DT     07E8 Rx 8  30 00 01 AA AA AA AA AA 
    478      5445.081 DT     07E0 Rx 8  21 A5 22 1A 80 4F F0 80 
    479      5446.424 DT     07E0 Rx 8  22 40 FF F7 44 FB 03 46 
    480      5447.798 DT     07E0 Rx 8  23 FB 73 04 4A 13 69 6F 
    481      5449.157 DT     07E0 Rx 8  24 F3 04 13 13 61 FB 7B 
    482      5450.525 DT     07E0 Rx 8  25 18 46 10 37 BD 46 80 
    483      5451.892 DT     07E0 Rx 8  26 BD 00 20 02 40 23 01 
    484      5453.255 DT     07E0 Rx 8  27 67 45 AB 89 EF CD 00 
    485      5454.626 DT     07E0 Rx 8  28 F8 FF 1F 80 B4 00 AF 
    486      5455.991 DT     07E0 Rx 8  29 04 4B DB 69 C3 F3 40 
    487      5457.276 DT     07E0 Rx 8  2A 03 DB B2 18 46 BD 46 
    488      5458.628 DT     07E0 Rx 8  2B 5D F8 04 7B 70 47 00 
    489      5460.053 DT     07E0 Rx 8  2C 20 02 40 80 B5 84 B0 
    490      5461.450 DT     07E0 Rx 8  2D 00 AF 03 46 FB 71 03 
    491      5462.835 DT     07E0 Rx 8  2E 23 FB 73 13 4B 13 4A 
    492      5464.167 DT     07E0 Rx 8  2F 9A 60 11 4B 13 4A 9A 
    493      5465.463 DT     07E0 Rx 8  20 60 00 BF 0F 4B 1B 69 
    494      5466.822 DT     07E0 Rx 8  21 C3 F3 40 23 DB B2 00 
    495      5468.190 DT     07E0 Rx 8  22 2B F8 D0 0C 4A 13 69 
    496      5469.496 DT     07E0 Rx 8  23 43 F0 10 03 13 61 0C 
    497      5470.823 DT     07E0 Rx 8  24 4B FA 79 92 B2 5A 80 
    498      5472.176 DT     07E0 Rx 8  25 4F F4 80 10 FF F7 00 
    499      5473.463 DT     07E0 Rx 8  26 FB 03 46 FB 73 04 4A 
    500      5474.778 DT     07E0 Rx 8  27 13 69 6F F3 04 13 13 
    501      5476.160 DT     07E0 Rx 8  28 61 FB 7B 18 46 10 37 
    502      5477.411 DT     07E0 Rx 8  29 BD 46 80 BD 00 20 02 
    503      5478.778 DT     07E0 Rx 8  2A 40 23 01 67 45 AB 89 
    504      5480.145 DT     07E0 Rx 8  2B EF CD 00 F8 FF 1F 80 
    505      5481.512 DT     07E0 Rx 8  2C B4 00 AF 04 4B DB 69 
    506      5482.871 DT     07E0 Rx 8  2D 9B 08 DB B2 18 46 BD 
    507      5484.228 DT     07E0 Rx 8  2E 46 5D F8 04 7B 70 47 
    508      5485.628 DT     07E0 Rx 8  2F 00 BF 00 20 02 40 80 
    509      5486.989 DT     07E0 Rx 8  20 B4 83 B0 00 AF 78 60 
    510      5488.375 DT     07E0 Rx 8  21 0B 46 FB 70 7B 68 03 
    511      5489.615 DT     07E0 Rx 8  22 F0 01 03 00 2B 08 D0 
    512      5490.950 DT     07E0 Rx 8  23 2C 4A FB 78 03 F0 01 
    513      5492.326 DT     07E0 Rx 8  24 03 D9 B2 13 69 61 F3 
    514      5493.684 DT     07E0 Rx 8  25 8A 23 13 61 7B 68 03 
    515      5495.035 DT     07E0 Rx 8  26 F0 02 03 00 2B 08 D0 
    516      5496.351 DT     07E0 Rx 8  27 25 4A FB 78 03 F0 01 
    517      5497.714 DT     07E0 Rx 8  28 03 D9 B2 13 69 61 F3 
    518      5499.130 DT     07E0 Rx 8  29 0C 33 13 61 7B 68 03 
    519      5500.486 DT     07E0 Rx 8  2A F0 04 03 00 2B 08 D0 
    520      5501.804 DT     07E0 Rx 8  2B 1E 4A FB 78 03 F0 01 
    521      5502.984 DT     07E0 Rx 8  2C 03 D9 B2 13 6D 61 F3 
    522      5504.347 DT     07E0 Rx 8  2D 8A 23 13 65 7B 68 03 
    523      5505.738 DT     07E0 Rx 8  2E F0 08 03 00 2B 08 D0 
    524      5507.135 DT     07E0 Rx 8  2F 17 4A FB 78 03 F0 01 
    525      5508.471 DT     07E0 Rx 8  20 03 D9 B2 13 6D 61 F3 
    526      5509.889 DT     07E0 Rx 8  21 0C 33 13 65 7B 68 03 
    527      5511.132 DT     07E0 Rx 8  22 F0 10 03 00 2B 0A D0 
    528      5512.507 DT     07E0 Rx 8  23 10 4A FB 78 03 F0 01 
    529      5513.809 DT     07E0 Rx 8  24 03 D9 B2 D2 F8 90 30 
    530      5515.140 DT     07E0 Rx 8  25 61 F3 8A 23 C2 F8 90 
    531      5516.529 DT     07E0 Rx 8  26 30 7B 68 03 F0 20 03 
    532      5518.031 DT     07E0 Rx 8  27 00 2B 0A D0 08 4A FB 
    533      5519.412 DT     07E0 Rx 8  28 78 03 F0 01 03 D9 B2 
    534      5520.668 DT     07E0 Rx 8  29 D2 F8 90 30 61 F3 0C 
    535      5522.082 DT     07E0 Rx 8  2A 33 C2 F8 90 30 00 BF 
    536      5523.552 DT     07E0 Rx 8  2B 0C 37 BD 46 5D F8 04 
    537      5524.936 DT     07E0 Rx 8  2C 7B 70 47 00 20 02 40 
    538      5526.284 DT     07E0 Rx 8  2D 80 B5 82 B0 00 AF 03 
    539      5527.641 DT     07E0 Rx 8  2E 46 FB 71 06 4B 1B 68 
    540      5528.959 DT     07E0 Rx 8  2F 06 4A FB 79 C2 F8 88 
    541      5530.291 DT     07E0 Rx 8  20 30 00 F0 19 F8 00 BF 
    542      5531.624 DT     07E0 Rx 8  21 08 37 BD 46 80 BD 00 
    543      5532.949 DT     07E0 Rx 8  22 BF 00 F8 FF 1F 00 20 
    544      5534.352 DT     07E0 Rx 8  23 02 40 80 B4 83 B0 00 
    545      5535.647 DT     07E0 Rx 8  24 AF 78 60 04 4A 7B 68 
    546      5536.954 DT     07E0 Rx 8  25 C2 F8 98 30 00 BF 0C 
    547      5538.382 DT     07E0 Rx 8  26 37 BD 46 5D F8 04 7B 
    548      5540.026 DT     07E0 Rx 8  27 70 47 00 20 02 40 80 
    549      5541.554 DT     07E0 Rx 8  28 B4 00 AF 4F F0 04 63 
    550      5542.840 DT     07E0 Rx 8  29 1B 68 04 4B 1B 68 04 
    551      5544.098 DT     07E0 Rx 8  2A 4B 1B 68 00 BF BD 46 
    552      5545.354 DT     07E0 Rx 8  2B 5D F8 04 7B 70 47 00 
    553      5546.628 DT     07E0 Rx 8  2C 10 40 08 00 20 40 08 
    554      5547.870 DT     07E0 Rx 8  2D 80 B5 88 B0 00 AF F8 
    555      5549.085 DT     07E0 Rx 8  2E 60 B9 60 7A 60 03 23 
    556      5550.406 DT     07E0 Rx 8  2F FB 77 FB 68 B3 F1 04 
    557      5551.656 DT     07E0 Rx 8  20 6F 4E D3 7B 68 03 F0 
    558      5552.939 DT     07E0 Rx 8  21 03 03 7B 61 7B 69 00 
    559      5554.202 DT     07E0 Rx 8  22 2B 04 D0 7B 69 02 2B 
    560      5555.576 DT     07E0 Rx 8  23 01 D0 FB 7F 43 E0 23 
    561      5556.936 DT     07E0 Rx 8  24 4A D2 F8 90 30 43 F0 
    562      5558.094 DT     07E0 Rx 8  25 01 03 C2 F8 90 30 00 
    563      5559.405 DT     07E0 Rx 8  26 23 BB 61 17 E0 BB 69 
    564      5560.681 DT     07E0 Rx 8  27 9B 00 BA 68 13 44 BA 
    565      5561.867 DT     07E0 Rx 8  28 69 91 00 FA 68 0A 44 
    566      5563.046 DT     07E0 Rx 8  29 1B 68 13 60 4F F4 80 
    567      5564.234 DT     07E0 Rx 8  2A 10 FF F7 76 FA 03 46 
    568      5565.385 DT     07E0 Rx 8  2B FB 77 FB 7F 03 2B 01 
    569      5566.588 DT     07E0 Rx 8  2C D0 FB 7F 24 E0 BB 69 
    570      5567.816 DT     07E0 Rx 8  2D 01 33 BB 61 7B 68 9B 
    571      5569.007 DT     07E0 Rx 8  2E 08 BA 69 9A 42 E2 D3 
    572      5570.247 DT     07E0 Rx 8  2F 7B 69 02 2B 0F D1 BB 
    573      5571.357 DT     07E0 Rx 8  20 69 9B 00 BA 68 13 44 
    574      5572.625 DT     07E0 Rx 8  21 BA 69 91 00 FA 68 0A 
    575      5573.895 DT     07E0 Rx 8  22 44 1B 88 13 80 4F F4 
    576      5575.173 DT     07E0 Rx 8  23 80 10 FF F7 56 FA 03 
    577      5576.506 DT     07E0 Rx 8  24 46 FB 77 06 4A D2 F8 
    578      5577.759 DT     07E0 Rx 8  25 90 30 6F F3 00 03 C2 
    579      5579.137 DT     07E0 Rx 8  26 F8 90 30 FF F7 93 FF 
    580      5580.365 DT     07E0 Rx 8  27 FB 7F 18 46 20 37 BD 
    581      5581.674 DT     07E0 Rx 8  28 46 80 BD 00 20 02 40 
    582      5582.905 DT     07E0 Rx 8  29 80 B5 86 B0 00 AF F8 
    583      5584.252 DT     07E0 Rx 8  2A 60 08 46 11 46 1A 46 
    584      5585.546 DT     07E0 Rx 8  2B 03 46 7B 81 0B 46 3B 
    585      5586.820 DT     07E0 Rx 8  2C 81 13 46 FB 80 03 23 
    586      5588.082 DT     07E0 Rx 8  2D FB 75 7A 89 3B 89 9A 
    587      5589.306 DT     07E0 Rx 8  2E 42 0C D2 3A 89 FB 88 
    588      5590.539 DT     07E0 Rx 8  2F 9A 42 04 D9 3B 89 40 
    589      5591.863 DT     07E0 Rx 8  20 F2 FF 72 93 42 03 D1 
    590      5593.093 DT     07E0 Rx 8  21 7A 89 FB 88 9A 42 01 
    591      5594.333 DT     07E0 Rx 8  22 D9 01 23 31 E0 1A 4B 
    592      5595.616 DT     07E0 Rx 8  23 1B 4A C3 F8 F0 20 00 
    593      5596.931 DT     07E0 Rx 8  24 BF 18 4B D3 F8 D8 30 
    594      5598.142 DT     07E0 Rx 8  25 C3 F3 80 03 DB B2 00 
    595      5599.383 DT     07E0 Rx 8  26 2B F7 D0 3B 89 DB 02 
    596      5600.641 DT     07E0 Rx 8  27 1A 46 14 4B 13 40 FA 
    597      5601.902 DT     07E0 Rx 8  28 88 92 05 1A 43 7B 89 
    598      5603.165 DT     07E0 Rx 8  29 C3 F3 0A 03 13 43 3B 
    599      5604.384 DT     07E0 Rx 8  2A 61 0D 4A FB 68 C2 F8 
    600      5605.665 DT     07E0 Rx 8  2B DC 30 4F F4 80 10 FF 
    601      5606.996 DT     07E0 Rx 8  2C F7 9A F9 03 46 FB 75 
    602      5608.301 DT     07E0 Rx 8  2D 08 4A 3B 69 C2 F8 E0 
    603      5609.534 DT     07E0 Rx 8  2E 30 FB 7D 03 2B 05 D1 
    604      5610.810 DT     07E0 Rx 8  2F 4F F4 80 10 FF F7 8D 
    605      5612.021 DT     07E0 Rx 8  20 F9 03 46 FB 75 FB 7D 
    606      5613.264 DT     07E0 Rx 8  21 18 46 18 37 BD 46 80 
    607      5614.482 DT     07E0 Rx 8  22 BD 00 20 02 40 24 6D 
    608      5615.699 DT     07E0 Rx 8  23 5F A3 00 F8 3F 00 80 
    609      5617.033 DT     07E0 Rx 8  24 B5 84 B0 00 AF 78 60 
    610      5618.318 DT     07E0 Rx 8  25 03 23 FB 73 0E 4A 7B 
    611      5619.639 DT     07E0 Rx 8  26 68 C2 F8 D4 30 4F F0 
    612      5620.916 DT     07E0 Rx 8  27 80 40 FF F7 72 F9 03 
    613      5622.256 DT     07E0 Rx 8  28 46 FB 73 FB 7B 03 2B 
    614      5623.631 DT     07E0 Rx 8  29 0B D1 08 4B D3 F8 D8 
    615      5624.999 DT     07E0 Rx 8  2A 30 C3 F3 40 03 DB B2 
    616      5626.374 DT     07E0 Rx 8  2B 00 2B 01 D0 01 23 02 
    617      5627.717 DT     07E0 Rx 8  2C E0 00 23 00 E0 00 23 
    618      5629.324 DT     07E0 Rx 8  2D 18 46 10 37 BD 46 80 
    619      5630.753 DT     07E0 Rx 8  2E BD 00 20 02 40 80 B4 
    620      5632.492 DT     07E0 Rx 8  2F 00 AF 05 4B D3 F8 D8 
    621      5634.063 DT     07E0 Rx 8  20 30 C3 F3 08 43 9B B2 
    622      5635.818 DT     07E0 Rx 8  21 18 46 BD 46 5D F8 04 
    623      5636.989 DT     07E0 Rx 8  22 7B 70 47 00 BF 00 00 
    624      5638.244 DT     07E8 Rx 8  03 7F 36 78 AA AA AA AA 
    625      5641.088 DT     07E8 Rx 8  04 76 04 04 02 AA AA AA 
    626      5641.548 DT     07E0 Rx 8  10 EE 36 05 00 20 02 40 
    627      5642.854 DT     07E8 Rx 8  30 00 01 AA AA AA AA AA 
    628      5644.528 DT     07E0 Rx 8  21 80 B4 00 AF 07 4B D3 
    629      5645.909 DT     07E0 Rx 8  22 F8 CC 30 C3 F3 C0 03 
    630      5647.361 DT     07E0 Rx 8  23 DB B2 00 2B 01 D0 01 
    631      5648.796 DT     07E0 Rx 8  24 23 00 E0 00 23 18 46 
    632      5650.463 DT     07E0 Rx 8  25 BD 46 5D F8 04 7B 70 
    633      5651.870 DT     07E0 Rx 8  26 47 00 20 02 40 80 B4 
    634      5653.113 DT     07E0 Rx 8  27 00 AF 05 4B D3 F8 D0 
    635      5654.518 DT     07E0 Rx 8  28 30 C3 F3 0A 03 9B B2 
    636      5655.884 DT     07E0 Rx 8  29 18 46 BD 46 5D F8 04 
    637      5657.211 DT     07E0 Rx 8  2A 7B 70 47 00 BF 00 20 
    638      5658.600 DT     07E0 Rx 8  2B 02 40 80 B4 00 AF 05 
    639      5659.972 DT     07E0 Rx 8  2C 4B D3 F8 D0 30 C3 F3 
    640      5661.289 DT     07E0 Rx 8  2D CA 23 9B B2 18 46 BD 
    641      5662.673 DT     07E0 Rx 8  2E 46 5D F8 04 7B 70 47 
    642      5664.023 DT     07E0 Rx 8  2F 00 BF 00 20 02 40 80 
    643      5665.364 DT     07E0 Rx 8  20 B4 00 AF 05 4B D3 F8 
    644      5666.766 DT     07E0 Rx 8  21 D0 30 C3 F3 89 53 9B 
    645      5668.001 DT     07E0 Rx 8  22 B2 18 46 BD 46 5D F8 
    646      5669.324 DT     07E0 Rx 8  23 04 7B 70 47 00 BF 00 
    647      5670.506 DT     07E0 Rx 8  24 20 02 40 80 B5 82 B0 
    648      5671.720 DT     07E0 Rx 8  25 00 AF 78 60 39 60 14 
    649      5673.104 DT     07E0 Rx 8  26 4A 7B 68 C3 F3 0B 03 
    650      5674.352 DT     07E0 Rx 8  27 99 B2 D2 F8 F4 30 61 
    651      5675.716 DT     07E0 Rx 8  28 F3 0B 03 C2 F8 F4 30 
    652      5677.069 DT     07E0 Rx 8  29 0E 4A 3B 68 C3 F3 0B 
    653      5678.394 DT     07E0 Rx 8  2A 03 99 B2 D2 F8 F4 30 
    654      5679.684 DT     07E0 Rx 8  2B 61 F3 17 33 C2 F8 F4 
    655      5681.017 DT     07E0 Rx 8  2C 30 09 4A D2 F8 F4 30 
    656      5682.334 DT     07E0 Rx 8  2D 43 F0 00 43 C2 F8 F4 
    657      5683.656 DT     07E0 Rx 8  2E 30 4F F0 80 50 FF F7 
    658      5685.368 DT     07E0 Rx 8  2F E0 F8 03 4B D3 F8 F8 
    659      5686.734 DT     07E0 Rx 8  20 30 18 46 08 37 BD 46 
    660      5688.108 DT     07E0 Rx 8  21 80 BD 00 BF 00 20 02 
    661      5689.509 DT     07E0 Rx 8  22 40 00 00 00 00 00 00 
    662      5690.793 DT     07E8 Rx 8  03 7F 36 78 AA AA AA AA 
    663      5691.597 DT     07E8 Rx 8  04 76 05 04 02 AA AA AA 
    664      5692.064 DT     07E0 Rx 8  01 37 00 00 00 00 00 00 
    665      5693.451 DT     07E8 Rx 8  01 77 AA AA AA AA AA AA 
    666      5694.311 DT     07E0 Rx 8  10 08 31 01 FF 01 21 1E 
    667      5695.615 DT     07E8 Rx 8  30 00 01 AA AA AA AA AA 
    668      5701.487 DT     07E0 Rx 8  21 8E 78 00 00 00 00 00 
    669      5702.893 DT     07E8 Rx 8  05 71 01 FF 01 01 AA AA 
    670      5703.521 DT     07E0 Rx 8  04 31 03 FF 01 00 00 00 
    671      5704.886 DT     07E8 Rx 8  05 71 03 FF 01 02 AA AA 
    672      5706.515 DT     07E0 Rx 8  04 31 02 FF 01 00 00 00 
    673      5707.870 DT     07E8 Rx 8  06 71 02 FF 01 04 01 AA 
    674      5711.467 DT     07E0 Rx 8  10 0C 31 01 FF 00 08 00 
    675      5712.773 DT     07E8 Rx 8  30 00 01 AA AA AA AA AA 
    676      5715.082 DT     07E0 Rx 8  21 08 00 00 05 E9 A8 00 
    677      5716.364 DT     07E8 Rx 8  03 7F 31 78 AA AA AA AA 
    678      7256.418 DT     07E8 Rx 8  03 7F 31 78 AA AA AA AA 
    679      8788.185 DT     07E8 Rx 8  03 7F 31 78 AA AA AA AA 
    680     10157.185 DT     07E8 Rx 8  03 7F 31 78 AA AA AA AA 
    681     11629.303 DT     07E8 Rx 8  03 7F 31 78 AA AA AA AA 
    682     12573.278 DT     07E8 Rx 8  05 71 01 FF 00 01 AA AA 
    683     12575.038 DT     07E0 Rx 8  04 31 03 FF 00 00 00 00 
    684     12576.416 DT     07E8 Rx 8  05 71 03 FF 00 02 AA AA 
    685     12577.432 DT     07E0 Rx 8  04 31 02 FF 00 00 00 00 
    686     12578.717 DT     07E8 Rx 8  05 71 02 FF 00 04 AA AA 
    687     12580.843 DT     07E0 Rx 8  10 0B 34 00 44 08 00 08 
    688     12582.111 DT     07E8 Rx 8  30 00 01 AA AA AA AA AA 
    689     12585.098 DT     07E0 Rx 8  21 00 00 05 E9 A8 00 00 
    690     12590.156 DT     07E8 Rx 8  04 74 20 04 02 AA AA AA 
    691     12590.758 DT     07E0 Rx 8  14 02 36 01 00 7C 01 20 
    692     12592.049 DT     07E8 Rx 8  30 00 01 AA AA AA AA AA 
    693     12594.716 DT     07E0 Rx 8  21 AD AB 02 08 8D 19 00 
    694     12596.498 DT     07E0 Rx 8  22 08 91 19 00 08 99 19 
    695     12597.901 DT     07E0 Rx 8  23 00 08 9D 19 00 08 A1 
    696     12599.220 DT     07E0 Rx 8  24 19 00 08 00 00 00 00 
    697     12600.549 DT     07E0 Rx 8  25 00 00 00 00 00 00 00 
    698     12601.824 DT     07E0 Rx 8  26 00 00 00 00 00 A5 19 
    699     12603.183 DT     07E0 Rx 8  27 00 08 A9 19 00 08 00 
    700     12604.603 DT     07E0 Rx 8  28 00 00 00 55 0A 00 08 
    701     12606.022 DT     07E0 Rx 8  29 AD 19 00 08 F5 AB 02 
    702     12607.360 DT     07E0 Rx 8  2A 08 F5 AB 02 08 F5 AB 
    703     12608.768 DT     07E0 Rx 8  2B 02 08 F5 AB 02 08 F5 
    704     12610.000 DT     07E0 Rx 8  2C AB 02 08 F5 AB 02 08 
    705     12611.275 DT     07E0 Rx 8  2D F5 AB 02 08 F5 AB 02 
    706     12612.701 DT     07E0 Rx 8  2E 08 F5 AB 02 08 F5 AB 
    707     12614.143 DT     07E0 Rx 8  2F 02 08 F5 AB 02 08 F5 
    708     12615.518 DT     07E0 Rx 8  20 AB 02 08 F5 AB 02 08 
    709     12616.815 DT     07E0 Rx 8  21 F5 AB 02 08 F5 AB 02 
    710     12618.172 DT     07E0 Rx 8  22 08 F5 AB 02 08 F5 AB 
    711     12619.427 DT     07E0 Rx 8  23 02 08 F5 AB 02 08 F5 
    712     12620.777 DT     07E0 Rx 8  24 1D 00 08 F5 AB 02 08 
    713     12622.259 DT     07E0 Rx 8  25 F5 AB 02 08 F5 AB 02 
    714     12623.698 DT     07E0 Rx 8  26 08 F5 AB 02 08 35 20 
    715     12624.983 DT     07E0 Rx 8  27 00 08 D1 09 00 08 F5 
    716     12626.255 DT     07E0 Rx 8  28 AB 02 08 F5 AB 02 08 
    717     12627.743 DT     07E0 Rx 8  29 F5 AB 02 08 F5 AB 02 
    718     12629.152 DT     07E0 Rx 8  2A 08 ED 09 00 08 F5 AB 
    719     12630.615 DT     07E0 Rx 8  2B 02 08 F5 AB 02 08 F5 
    720     12631.956 DT     07E0 Rx 8  2C AB 02 08 F5 AB 02 08 
    721     12633.277 DT     07E0 Rx 8  2D F5 AB 02 08 F5 AB 02 
    722     12634.571 DT     07E0 Rx 8  2E 08 F5 AB 02 08 F5 AB 
    723     12635.926 DT     07E0 Rx 8  2F 02 08 F5 AB 02 08 F5 
    724     12637.275 DT     07E0 Rx 8  20 AB 02 08 F5 AB 02 08 
    725     12638.620 DT     07E0 Rx 8  21 F5 AB 02 08 F5 AB 02 
    726     12639.962 DT     07E0 Rx 8  22 08 F5 AB 02 08 F5 AB 
    727     12641.286 DT     07E0 Rx 8  23 02 08 F5 AB 02 08 F5 
    728     12642.645 DT     07E0 Rx 8  24 AB 02 08 F5 AB 02 08 
    729     12644.116 DT     07E0 Rx 8  25 F5 AB 02 08 F5 AB 02 
    730     12645.457 DT     07E0 Rx 8  26 08 F5 AB 02 08 F5 AB 
    731     12646.866 DT     07E0 Rx 8  27 02 08 F5 AB 02 08 F5 
    732     12648.336 DT     07E0 Rx 8  28 AB 02 08 F5 AB 02 08 
    733     12649.768 DT     07E0 Rx 8  29 F5 AB 02 08 F5 AB 02 
    734     12651.225 DT     07E0 Rx 8  2A 08 F5 AB 02 08 F5 AB 
    735     12652.649 DT     07E0 Rx 8  2B 02 08 F5 AB 02 08 F5 
    736     12653.972 DT     07E0 Rx 8  2C AB 02 08 F5 AB 02 08 
    737     12655.353 DT     07E0 Rx 8  2D F5 AB 02 08 F5 AB 02 
    738     12656.874 DT     07E0 Rx 8  2E 08 00 00 00 00 00 00 
    739     12658.655 DT     07E0 Rx 8  2F 00 00 00 00 00 00 00 
    740     12660.127 DT     07E0 Rx 8  20 00 00 00 F5 AB 02 08 
    741     12661.549 DT     07E0 Rx 8  21 F5 AB 02 08 F5 AB 02 
    742     12663.008 DT     07E0 Rx 8  22 08 F5 AB 02 08 F5 AB 
    743     12664.369 DT     07E0 Rx 8  23 02 08 F5 AB 02 08 F5 
    744     12665.770 DT     07E0 Rx 8  24 AB 02 08 F5 AB 02 08 
    745     12667.225 DT     07E0 Rx 8  25 F5 AB 02 08 F5 AB 02 
    746     12668.722 DT     07E0 Rx 8  26 08 F5 AB 02 08 F5 AB 
    747     12670.187 DT     07E0 Rx 8  27 02 08 F5 AB 02 08 FF 
    748     12671.585 DT     07E0 Rx 8  28 FF FF FF FF FF FF FF 
    749     12673.076 DT     07E0 Rx 8  29 FF FF FF FF 10 B5 05 
    750     12674.511 DT     07E0 Rx 8  2A 4C 23 78 33 B9 04 4B 
    751     12675.987 DT     07E0 Rx 8  2B 13 B1 04 48 AF F3 00 
    752     12677.500 DT     07E0 Rx 8  2C 80 01 23 23 70 10 BD 
    753     12679.170 DT     07E0 Rx 8  2D A0 18 00 20 00 00 00 
    754     12680.777 DT     07E0 Rx 8  2E 00 D8 F5 02 08 08 B5 
    755     12682.271 DT     07E0 Rx 8  2F 03 4B 1B B1 03 49 03 
    756     12683.865 DT     07E0 Rx 8  20 48 AF F3 00 80 08 BD 
    757     12685.309 DT     07E0 Rx 8  21 00 00 00 00 A4 18 00 
    758     12686.794 DT     07E0 Rx 8  22 20 D8 F5 02 08 38 48 
    759     12688.152 DT     07E0 Rx 8  23 01 88 01 31 FF 22 11 
    760     12689.588 DT     07E0 Rx 8  24 40 01 80 00 B5 80 B4 
    761     12691.151 DT     07E0 Rx 8  25 10 F0 BC F9 80 BC 01 
    762     12692.589 DT     07E0 Rx 8  26 BC 86 46 70 47 31 48 
    763     12707.414 DT     07E0 Rx 8  27 01 88 01 31 FF 22 11 
    764     12709.005 DT     07E0 Rx 8  28 40 01 80 40 46 49 46 
    765     12710.475 DT     07E0 Rx 8  29 52 46 5B 46 01 B4 02 
    766     12711.795 DT     07E0 Rx 8  2A B4 04 B4 08 B4 10 B4 
    767     12713.167 DT     07E0 Rx 8  2B 20 B4 40 B4 80 B4 00 
    768     12714.583 DT     07E0 Rx 8  2C B5 29 4C 29 4D 20 88 
    769     12715.869 DT     07E0 Rx 8  2D 80 00 29 18 EF F3 08 
    770     12717.284 DT     07E0 Rx 8  2E 80 08 60 01 B4 10 F0 
    771     12718.888 DT     07E0 Rx 8  2F AC FA 01 BC 20 88 80 
    772     12720.271 DT     07E0 Rx 8  20 00 29 18 09 68 81 F3 
    773     12721.583 DT     07E0 Rx 8  21 08 88 01 BC 86 46 80 
    774     12722.905 DT     07E0 Rx 8  22 BC 40 BC 20 BC 10 BC 
    775     12724.229 DT     07E0 Rx 8  23 08 BC 04 BC 02 BC 01 
    776     12725.564 DT     07E0 Rx 8  24 BC 80 46 89 46 92 46 
    777     12726.929 DT     07E0 Rx 8  25 9B 46 70 47 40 46 49 
    778     12728.264 DT     07E0 Rx 8  26 46 52 46 5B 46 01 B4 
    779     12729.516 DT     07E0 Rx 8  27 02 B4 04 B4 08 B4 10 
    780     12730.789 DT     07E0 Rx 8  28 B4 20 B4 40 B4 80 B4 
    781     12732.071 DT     07E0 Rx 8  29 00 B5 12 4C 12 4D 20 
    782     12733.368 DT     07E0 Rx 8  2A 88 80 00 29 18 EF F3 
    783     12734.692 DT     07E0 Rx 8  2B 08 80 08 60 81 B0 10 
    784     12735.862 DT     07E0 Rx 8  2C F0 32 FC 01 B0 07 20 
    785     12737.166 DT     07E0 Rx 8  2D 20 80 80 00 29 18 09 
    786     12738.493 DT     07E0 Rx 8  2E 68 81 F3 08 88 01 BC 
    787     12739.769 DT     07E0 Rx 8  2F 86 46 80 BC 40 BC 20 
    788     12741.027 DT     07E0 Rx 8  20 BC 10 BC 08 BC 04 BC 
    789     12742.306 DT     07E0 Rx 8  21 02 BC 01 BC 80 46 89 
    790     12743.574 DT     07E0 Rx 8  22 46 92 46 9B 46 70 47 
    791     12744.864 DT     07E0 Rx 8  23 00 00 7C 8B 00 20 C4 
    792     12746.057 DT     07E0 Rx 8  24 0D 00 20 34 8B 00 20 
    793     12747.340 DT     07E0 Rx 8  25 81 F0 00 41 02 E0 00 
    794     12748.677 DT     07E0 Rx 8  26 BF 83 F0 00 43 30 B5 
    795     12750.120 DT     07E0 Rx 8  27 4F EA 41 04 4F EA 43 
    796     12751.446 DT     07E0 Rx 8  28 05 94 EA 05 0F 08 BF 
    797     12752.803 DT     07E0 Rx 8  29 90 EA 02 0F 1F BF 54 
    798     12754.142 DT     07E0 Rx 8  2A EA 00 0C 55 EA 02 0C 
    799     12755.486 DT     07E0 Rx 8  2B 7F EA 64 5C 7F EA 65 
    800     12757.055 DT     07E0 Rx 8  2C 5C 00 F0 E2 80 4F EA 
    801     12758.404 DT     07E0 Rx 8  2D 54 54 D4 EB 55 55 B8 
    802     12759.774 DT     07E0 Rx 8  2E BF 6D 42 0C DD 2C 44 
    803     12761.045 DT     07E0 Rx 8  2F 80 EA 02 02 81 EA 03 
    804     12762.303 DT     07E0 Rx 8  20 03 82 EA 00 00 83 EA 
    805     12763.599 DT     07E0 Rx 8  21 01 01 80 EA 02 02 81 
    806     12764.852 DT     07E0 Rx 8  22 EA 03 03 36 2D 88 BF 
    807     12766.103 DT     07E0 Rx 8  23 30 BD 11 F0 00 4F 4F 
    808     12767.381 DT     07E0 Rx 8  24 EA 01 31 4F F4 80 1C 
    809     12768.713 DT     07E0 Rx 8  25 4C EA 11 31 02 D0 40 
    810     12770.068 DT     07E0 Rx 8  26 42 61 EB 41 01 13 F0 
    811     12771.327 DT     07E0 Rx 8  27 00 4F 4F EA 03 33 4C 
    812     12772.676 DT     07E0 Rx 8  28 EA 13 33 02 D0 52 42 
    813     12774.010 DT     07E0 Rx 8  29 63 EB 43 03 94 EA 05 
    814     12775.283 DT     07E0 Rx 8  2A 0F 00 F0 A7 80 A4 F1 
    815     12776.573 DT     07E0 Rx 8  2B 01 04 D5 F1 20 0E 0D 
    816     12777.858 DT     07E0 Rx 8  2C DB 02 FA 0E FC 22 FA 
    817     12779.166 DT     07E0 Rx 8  2D 05 F2 80 18 41 F1 00 
    818     12780.742 DT     07E0 Rx 8  2E 01 03 FA 0E F2 80 18 
    819     12782.060 DT     07E0 Rx 8  2F 43 FA 05 F3 59 41 0E 
    820     12783.325 DT     07E0 Rx 8  20 E0 A5 F1 20 05 0E F1 
    821     12784.586 DT     07E0 Rx 8  21 20 0E 01 2A 03 FA 0E 
    822     12785.896 DT     07E0 Rx 8  22 FC 28 BF 4C F0 02 0C 
    823     12787.206 DT     07E0 Rx 8  23 43 FA 05 F3 C0 18 51 
    824     12788.515 DT     07E0 Rx 8  24 EB E3 71 01 F0 00 45 
    825     12789.820 DT     07E0 Rx 8  25 07 D5 4F F0 00 0E DC 
    826     12791.059 DT     07E0 Rx 8  26 F1 00 0C 7E EB 00 00 
    827     12792.332 DT     07E0 Rx 8  27 6E EB 01 01 B1 F5 80 
    828     12793.669 DT     07E0 Rx 8  28 1F 1B D3 B1 F5 00 1F 
    829     12795.027 DT     07E0 Rx 8  29 0C D3 49 08 5F EA 30 
    830     12796.332 DT     07E0 Rx 8  2A 00 4F EA 3C 0C 04 F1 
    831     12797.604 DT     07E0 Rx 8  2B 01 04 4F EA 44 52 12 
    832     12798.875 DT     07E0 Rx 8  2C F5 80 0F 80 F0 9A 80 
    833     12800.164 DT     07E0 Rx 8  2D BC F1 00 4F 08 BF 5F 
    834     12801.517 DT     07E0 Rx 8  2E EA 50 0C 50 F1 00 00 
    835     12802.673 DT     07E0 Rx 8  2F 41 EB 04 51 41 EA 05 
    836     12803.937 DT     07E0 Rx 8  20 01 30 BD 5F EA 4C 0C 
    837     12805.284 DT     07E0 Rx 8  21 40 41 41 EB 01 01 01 
    838     12806.584 DT     07E0 Rx 8  22 3C 28 BF B1 F5 00 00 
    839     12807.812 DT     07E8 Rx 8  03 7F 36 78 AA AA AA AA 
    840     12814.785 DT     07E8 Rx 8  04 76 01 04 02 AA AA AA 
    841     12815.241 DT     07E0 Rx 8  14 02 36 02 80 1F E9 D2 
    842     12816.539 DT     07E8 Rx 8  30 00 01 AA AA AA AA AA 
    843     12817.988 DT     07E0 Rx 8  21 91 F0 00 0F 04 BF 01 
    844     12819.337 DT     07E0 Rx 8  22 46 00 20 B1 FA 81 F3 
    845     12820.723 DT     07E0 Rx 8  23 08 BF 20 33 A3 F1 0B 
    846     12822.074 DT     07E0 Rx 8  24 03 B3 F1 20 02 0C DA 
    847     12823.378 DT     07E0 Rx 8  25 0C 32 08 DD 02 F1 14 
    848     12824.705 DT     07E0 Rx 8  26 0C C2 F1 0C 02 01 FA 
    849     12825.988 DT     07E0 Rx 8  27 0C F0 21 FA 02 F1 0C 
    850     12827.320 DT     07E0 Rx 8  28 E0 02 F1 14 02 D8 BF 
    851     12828.606 DT     07E0 Rx 8  29 C2 F1 20 0C 01 FA 02 
    852     12829.901 DT     07E0 Rx 8  2A F1 20 FA 0C FC DC BF 
    853     12831.242 DT     07E0 Rx 8  2B 41 EA 0C 01 90 40 E4 
    854     12832.545 DT     07E0 Rx 8  2C 1A A2 BF 01 EB 04 51 
    855     12833.790 DT     07E0 Rx 8  2D 29 43 30 BD 6F EA 04 
    856     12835.062 DT     07E0 Rx 8  2E 04 1F 3C 1C DA 0C 34 
    857     12836.213 DT     07E0 Rx 8  2F 0E DC 04 F1 14 04 C4 
    858     12837.517 DT     07E0 Rx 8  20 F1 20 02 20 FA 04 F0 
    859     12838.777 DT     07E0 Rx 8  21 01 FA 02 F3 40 EA 03 
    860     12840.096 DT     07E0 Rx 8  22 00 21 FA 04 F3 45 EA 
    861     12841.478 DT     07E0 Rx 8  23 03 01 30 BD C4 F1 0C 
    862     12842.798 DT     07E0 Rx 8  24 04 C4 F1 20 02 20 FA 
    863     12844.086 DT     07E0 Rx 8  25 02 F0 01 FA 04 F3 40 
    864     12845.351 DT     07E0 Rx 8  26 EA 03 00 29 46 30 BD 
    865     12846.638 DT     07E0 Rx 8  27 21 FA 04 F0 29 46 30 
    866     12847.873 DT     07E0 Rx 8  28 BD 94 F0 00 0F 83 F4 
    867     12849.128 DT     07E0 Rx 8  29 80 13 06 BF 81 F4 80 
    868     12850.511 DT     07E0 Rx 8  2A 11 01 34 01 3D 4E E7 
    869     12851.969 DT     07E0 Rx 8  2B 7F EA 64 5C 18 BF 7F 
    870     12853.391 DT     07E0 Rx 8  2C EA 65 5C 29 D0 94 EA 
    871     12854.828 DT     07E0 Rx 8  2D 05 0F 08 BF 90 EA 02 
    872     12856.242 DT     07E0 Rx 8  2E 0F 05 D0 54 EA 00 0C 
    873     12857.701 DT     07E0 Rx 8  2F 04 BF 19 46 10 46 30 
    874     12859.121 DT     07E0 Rx 8  20 BD 91 EA 03 0F 1E BF 
    875     12860.482 DT     07E0 Rx 8  21 00 21 00 20 30 BD 5F 
    876     12861.983 DT     07E0 Rx 8  22 EA 54 5C 05 D1 40 00 
    877     12863.374 DT     07E0 Rx 8  23 49 41 28 BF 41 F0 00 
    878     12864.820 DT     07E0 Rx 8  24 41 30 BD 14 F5 80 04 
    879     12866.270 DT     07E0 Rx 8  25 3C BF 01 F5 80 11 30 
    880     12867.712 DT     07E0 Rx 8  26 BD 01 F0 00 45 45 F0 
    881     12869.096 DT     07E0 Rx 8  27 FE 41 41 F4 70 01 4F 
    882     12870.734 DT     07E0 Rx 8  28 F0 00 00 30 BD 7F EA 
    883     12872.637 DT     07E0 Rx 8  29 64 5C 1A BF 19 46 10 
    884     12874.157 DT     07E0 Rx 8  2A 46 7F EA 65 5C 1C BF 
    885     12875.624 DT     07E0 Rx 8  2B 0B 46 02 46 50 EA 01 
    886     12877.360 DT     07E0 Rx 8  2C 34 06 BF 52 EA 03 35 
    887     12879.010 DT     07E0 Rx 8  2D 91 EA 03 0F 41 F4 00 
    888     12880.611 DT     07E0 Rx 8  2E 21 30 BD 00 BF 90 F0 
    889     12882.411 DT     07E0 Rx 8  2F 00 0F 04 BF 00 21 70 
    890     12884.025 DT     07E0 Rx 8  20 47 30 B5 4F F4 80 64 
    891     12885.401 DT     07E0 Rx 8  21 04 F1 32 04 4F F0 00 
    892     12886.835 DT     07E0 Rx 8  22 05 4F F0 00 01 50 E7 
    893     12888.253 DT     07E0 Rx 8  23 00 BF 90 F0 00 0F 04 
    894     12889.858 DT     07E0 Rx 8  24 BF 00 21 70 47 30 B5 
    895     12891.306 DT     07E0 Rx 8  25 4F F4 80 64 04 F1 32 
    896     12892.666 DT     07E0 Rx 8  26 04 10 F0 00 45 48 BF 
    897     12894.083 DT     07E0 Rx 8  27 40 42 4F F0 00 01 3E 
    898     12895.531 DT     07E0 Rx 8  28 E7 00 BF 42 00 4F EA 
    899     12897.119 DT     07E0 Rx 8  29 E2 01 4F EA 31 01 4F 
    900     12898.868 DT     07E0 Rx 8  2A EA 02 70 1F BF 12 F0 
    901     12900.321 DT     07E0 Rx 8  2B 7F 43 93 F0 7F 4F 81 
    902     12901.737 DT     07E0 Rx 8  2C F0 60 51 70 47 32 F0 
    903     12903.057 DT     07E0 Rx 8  2D 7F 42 08 BF 70 47 93 
    904     12904.407 DT     07E0 Rx 8  2E F0 7F 4F 04 BF 41 F4 
    905     12905.758 DT     07E0 Rx 8  2F 00 21 70 47 30 B5 4F 
    906     12907.139 DT     07E0 Rx 8  20 F4 60 74 01 F0 00 45 
    907     12908.370 DT     07E0 Rx 8  21 21 F0 00 41 1C E7 00 
    908     12910.042 DT     07E0 Rx 8  22 BF 50 EA 01 02 08 BF 
    909     12911.467 DT     07E0 Rx 8  23 70 47 30 B5 4F F0 00 
    910     12912.867 DT     07E0 Rx 8  24 05 0A E0 50 EA 01 02 
    911     12914.206 DT     07E0 Rx 8  25 08 BF 70 47 30 B5 11 
    912     12915.587 DT     07E0 Rx 8  26 F0 00 45 02 D5 40 42 
    913     12917.099 DT     07E0 Rx 8  27 61 EB 41 01 4F F4 80 
    914     12918.523 DT     07E0 Rx 8  28 64 04 F1 32 04 5F EA 
    915     12919.951 DT     07E0 Rx 8  29 91 5C 3F F4 D8 AE 4F 
    916     12921.591 DT     07E0 Rx 8  2A F0 03 02 5F EA DC 0C 
    917     12923.004 DT     07E0 Rx 8  2B 18 BF 03 32 5F EA DC 
    918     12924.383 DT     07E0 Rx 8  2C 0C 18 BF 03 32 02 EB 
    919     12926.176 DT     07E0 Rx 8  2D DC 02 C2 F1 20 03 00 
    920     12927.607 DT     07E0 Rx 8  2E FA 03 FC 20 FA 02 F0 
    921     12929.171 DT     07E0 Rx 8  2F 01 FA 03 FE 40 EA 0E 
    922     12930.647 DT     07E0 Rx 8  20 00 21 FA 02 F1 14 44 
    923     12932.097 DT     07E0 Rx 8  21 BD E6 00 BF 70 B5 4F 
    924     12933.584 DT     07E0 Rx 8  22 F0 FF 0C 4C F4 E0 6C 
    925     12935.043 DT     07E0 Rx 8  23 1C EA 11 54 1D BF 1C 
    926     12936.607 DT     07E0 Rx 8  24 EA 13 55 94 EA 0C 0F 
    927     12938.146 DT     07E0 Rx 8  25 95 EA 0C 0F 00 F0 DE 
    928     12939.660 DT     07E0 Rx 8  26 F8 2C 44 81 EA 03 06 
    929     12941.115 DT     07E0 Rx 8  27 21 EA 4C 51 23 EA 4C 
    930     12942.630 DT     07E0 Rx 8  28 53 50 EA 01 35 18 BF 
    931     12943.976 DT     07E0 Rx 8  29 52 EA 03 35 41 F4 80 
    932     12945.343 DT     07E0 Rx 8  2A 11 43 F4 80 13 38 D0 
    933     12946.810 DT     07E0 Rx 8  2B A0 FB 02 CE 4F F0 00 
    934     12948.269 DT     07E0 Rx 8  2C 05 E1 FB 02 E5 06 F0 
    935     12949.682 DT     07E0 Rx 8  2D 00 42 E0 FB 03 E5 4F 
    936     12951.061 DT     07E0 Rx 8  2E F0 00 06 E1 FB 03 56 
    937     12952.395 DT     07E0 Rx 8  2F 9C F0 00 0F 18 BF 4E 
    938     12953.772 DT     07E0 Rx 8  20 F0 01 0E A4 F1 FF 04 
    939     12955.325 DT     07E0 Rx 8  21 B6 F5 00 7F 64 F5 40 
    940     12956.858 DT     07E0 Rx 8  22 74 04 D2 5F EA 4E 0E 
    941     12958.450 DT     07E0 Rx 8  23 6D 41 46 EB 06 06 42 
    942     12959.865 DT     07E0 Rx 8  24 EA C6 21 41 EA 55 51 
    943     12961.273 DT     07E0 Rx 8  25 4F EA C5 20 40 EA 5E 
    944     12962.616 DT     07E0 Rx 8  26 50 4F EA CE 2E B4 F1 
    945     12964.040 DT     07E0 Rx 8  27 FD 0C 88 BF BC F5 E0 
    946     12965.366 DT     07E0 Rx 8  28 6F 1E D8 BE F1 00 4F 
    947     12966.824 DT     07E0 Rx 8  29 08 BF 5F EA 50 0E 50 
    948     12968.248 DT     07E0 Rx 8  2A F1 00 00 41 EB 04 51 
    949     12969.554 DT     07E0 Rx 8  2B 70 BD 06 F0 00 46 46 
    950     12971.264 DT     07E0 Rx 8  2C EA 01 01 40 EA 02 00 
    951     12972.729 DT     07E0 Rx 8  2D 81 EA 03 01 B4 EB 5C 
    952     12974.160 DT     07E0 Rx 8  2E 04 C2 BF D4 EB 0C 05 
    953     12975.498 DT     07E0 Rx 8  2F 41 EA 04 51 70 BD 41 
    954     12976.871 DT     07E0 Rx 8  20 F4 80 11 4F F0 00 0E 
    955     12978.161 DT     07E0 Rx 8  21 01 3C 00 F3 AB 80 14 
    956     12979.451 DT     07E0 Rx 8  22 F1 36 0F DE BF 00 20 
    957     12980.812 DT     07E0 Rx 8  23 01 F0 00 41 70 BD C4 
    958     12982.132 DT     07E0 Rx 8  24 F1 00 04 20 3C 35 DA 
    959     12983.442 DT     07E0 Rx 8  25 0C 34 1B DC 04 F1 14 
    960     12984.692 DT     07E0 Rx 8  26 04 C4 F1 20 05 00 FA 
    961     12985.973 DT     07E0 Rx 8  27 05 F3 20 FA 04 F0 01 
    962     12987.316 DT     07E0 Rx 8  28 FA 05 F2 40 EA 02 00 
    963     12988.624 DT     07E0 Rx 8  29 01 F0 00 42 21 F0 00 
    964     12989.924 DT     07E0 Rx 8  2A 41 10 EB D3 70 21 FA 
    965     12991.163 DT     07E0 Rx 8  2B 04 F6 42 EB 06 01 5E 
    966     12992.391 DT     07E0 Rx 8  2C EA 43 0E 08 BF 20 EA 
    967     12993.883 DT     07E0 Rx 8  2D D3 70 70 BD C4 F1 0C 
    968     12995.236 DT     07E0 Rx 8  2E 04 C4 F1 20 05 00 FA 
    969     12996.594 DT     07E0 Rx 8  2F 04 F3 20 FA 05 F0 01 
    970     12997.943 DT     07E0 Rx 8  20 FA 04 F2 40 EA 02 00 
    971     12999.224 DT     07E0 Rx 8  21 01 F0 00 41 10 EB D3 
    972     13000.576 DT     07E0 Rx 8  22 70 41 F1 00 01 5E EA 
    973     13001.941 DT     07E0 Rx 8  23 43 0E 08 BF 20 EA D3 
    974     13003.276 DT     07E0 Rx 8  24 70 70 BD C4 F1 20 05 
    975     13004.610 DT     07E0 Rx 8  25 00 FA 05 F2 4E EA 02 
    976     13005.888 DT     07E0 Rx 8  26 0E 20 FA 04 F3 01 FA 
    977     13007.237 DT     07E0 Rx 8  27 05 F2 43 EA 02 03 21 
    978     13008.589 DT     07E0 Rx 8  28 FA 04 F0 01 F0 00 41 
    979     13009.920 DT     07E0 Rx 8  29 21 FA 04 F2 20 EA 02 
    980     13011.236 DT     07E0 Rx 8  2A 00 00 EB D3 70 5E EA 
    981     13012.535 DT     07E0 Rx 8  2B 43 0E 08 BF 20 EA D3 
    982     13013.814 DT     07E0 Rx 8  2C 70 70 BD 94 F0 00 0F 
    983     13015.172 DT     07E0 Rx 8  2D 0F D1 01 F0 00 46 40 
    984     13016.528 DT     07E0 Rx 8  2E 00 41 EB 01 01 11 F4 
    985     13017.863 DT     07E0 Rx 8  2F 80 1F 08 BF 01 3C F7 
    986     13019.201 DT     07E0 Rx 8  20 D0 41 EA 06 01 95 F0 
    987     13020.592 DT     07E0 Rx 8  21 00 0F 18 BF 70 47 03 
    988     13021.858 DT     07E0 Rx 8  22 F0 00 46 52 00 00 00 
    989     13023.077 DT     07E8 Rx 8  03 7F 36 78 AA AA AA AA 
    990     13030.040 DT     07E8 Rx 8  04 76 02 04 02 AA AA AA 
    991     13030.601 DT     07E0 Rx 8  14 02 36 03 43 EB 03 03 
    992     13031.850 DT     07E8 Rx 8  30 00 01 AA AA AA AA AA 
    993     13033.440 DT     07E0 Rx 8  21 13 F4 80 1F 08 BF 01 
    994     13034.748 DT     07E0 Rx 8  22 3D F7 D0 43 EA 06 03 
    995     13036.177 DT     07E0 Rx 8  23 70 47 94 EA 0C 0F 0C 
    996     13037.371 DT     07E0 Rx 8  24 EA 13 55 18 BF 95 EA 
    997     13038.911 DT     07E0 Rx 8  25 0C 0F 0C D0 50 EA 41 
    998     13040.199 DT     07E0 Rx 8  26 06 18 BF 52 EA 43 06 
    999     13041.550 DT     07E0 Rx 8  27 D1 D1 81 EA 03 01 01 
   1000     13042.919 DT     07E0 Rx 8  28 F0 00 41 4F F0 00 00 
   1001     13044.269 DT     07E0 Rx 8  29 70 BD 50 EA 41 06 06 
   1002     13045.613 DT     07E0 Rx 8  2A BF 10 46 19 46 52 EA 
   1003     13046.967 DT     07E0 Rx 8  2B 43 06 19 D0 94 EA 0C 
   1004     13048.270 DT     07E0 Rx 8  2C 0F 02 D1 50 EA 01 36 
   1005     13049.534 DT     07E0 Rx 8  2D 13 D1 95 EA 0C 0F 05 
   1006     13050.866 DT     07E0 Rx 8  2E D1 52 EA 03 36 1C BF 
   1007     13052.191 DT     07E0 Rx 8  2F 10 46 19 46 0A D1 81 
   1008     13053.585 DT     07E0 Rx 8  20 EA 03 01 01 F0 00 41 
   1009     13054.927 DT     07E0 Rx 8  21 41 F0 FE 41 41 F4 70 
   1010     13056.223 DT     07E0 Rx 8  22 01 4F F0 00 00 70 BD 
   1011     13057.622 DT     07E0 Rx 8  23 41 F0 FE 41 41 F4 78 
   1012     13058.977 DT     07E0 Rx 8  24 01 70 BD 70 B5 4F F0 
   1013     13060.351 DT     07E0 Rx 8  25 FF 0C 4C F4 E0 6C 1C 
   1014     13061.831 DT     07E0 Rx 8  26 EA 11 54 1D BF 1C EA 
   1015     13063.189 DT     07E0 Rx 8  27 13 55 94 EA 0C 0F 95 
   1016     13064.571 DT     07E0 Rx 8  28 EA 0C 0F 00 F0 A7 F8 
   1017     13065.993 DT     07E0 Rx 8  29 A4 EB 05 04 81 EA 03 
   1018     13067.359 DT     07E0 Rx 8  2A 0E 52 EA 03 35 4F EA 
   1019     13068.835 DT     07E0 Rx 8  2B 01 31 00 F0 88 80 4F 
   1020     13070.255 DT     07E0 Rx 8  2C EA 03 33 4F F0 80 55 
   1021     13071.783 DT     07E0 Rx 8  2D 45 EA 13 13 43 EA 12 
   1022     13073.269 DT     07E0 Rx 8  2E 63 4F EA 02 22 45 EA 
   1023     13074.713 DT     07E0 Rx 8  2F 11 15 45 EA 10 65 4F 
   1024     13076.151 DT     07E0 Rx 8  20 EA 00 26 0E F0 00 41 
   1025     13077.608 DT     07E0 Rx 8  21 9D 42 08 BF 96 42 44 
   1026     13079.064 DT     07E0 Rx 8  22 F1 FD 04 04 F5 40 74 
   1027     13080.536 DT     07E0 Rx 8  23 02 D2 5B 08 4F EA 32 
   1028     13082.079 DT     07E0 Rx 8  24 02 B6 1A 65 EB 03 05 
   1029     13083.505 DT     07E0 Rx 8  25 5B 08 4F EA 32 02 4F 
   1030     13084.947 DT     07E0 Rx 8  26 F4 80 10 4F F4 00 2C 
   1031     13086.222 DT     07E0 Rx 8  27 B6 EB 02 0E 75 EB 03 
   1032     13087.449 DT     07E0 Rx 8  28 0E 22 BF B6 1A 75 46 
   1033     13088.819 DT     07E0 Rx 8  29 40 EA 0C 00 5B 08 4F 
   1034     13090.146 DT     07E0 Rx 8  2A EA 32 02 B6 EB 02 0E 
   1035     13091.395 DT     07E0 Rx 8  2B 75 EB 03 0E 22 BF B6 
   1036     13092.755 DT     07E0 Rx 8  2C 1A 75 46 40 EA 5C 00 
   1037     13094.088 DT     07E0 Rx 8  2D 5B 08 4F EA 32 02 B6 
   1038     13095.562 DT     07E0 Rx 8  2E EB 02 0E 75 EB 03 0E 
   1039     13096.919 DT     07E0 Rx 8  2F 22 BF B6 1A 75 46 40 
   1040     13098.280 DT     07E0 Rx 8  20 EA 9C 00 5B 08 4F EA 
   1041     13099.593 DT     07E0 Rx 8  21 32 02 B6 EB 02 0E 75 
   1042     13100.857 DT     07E0 Rx 8  22 EB 03 0E 22 BF B6 1A 
   1043     13102.139 DT     07E0 Rx 8  23 75 46 40 EA DC 00 55 
   1044     13103.374 DT     07E0 Rx 8  24 EA 06 0E 18 D0 4F EA 
   1045     13104.563 DT     07E0 Rx 8  25 05 15 45 EA 16 75 4F 
   1046     13105.896 DT     07E0 Rx 8  26 EA 06 16 4F EA C3 03 
   1047     13107.167 DT     07E0 Rx 8  27 43 EA 52 73 4F EA C2 
   1048     13108.481 DT     07E0 Rx 8  28 02 5F EA 1C 1C C0 D1 
   1049     13109.803 DT     07E0 Rx 8  29 11 F4 80 1F 0B D1 41 
   1050     13111.078 DT     07E0 Rx 8  2A EA 00 01 4F F0 00 00 
   1051     13112.370 DT     07E0 Rx 8  2B 4F F0 00 4C B6 E7 11 
   1052     13113.690 DT     07E0 Rx 8  2C F4 80 1F 04 BF 01 43 
   1053     13115.109 DT     07E0 Rx 8  2D 00 20 B4 F1 FD 0C 88 
   1054     13116.384 DT     07E0 Rx 8  2E BF BC F5 E0 6F 3F F6 
   1055     13117.858 DT     07E0 Rx 8  2F AF AE B5 EB 03 0C 04 
   1056     13119.370 DT     07E0 Rx 8  20 BF B6 EB 02 0C 5F EA 
   1057     13120.816 DT     07E0 Rx 8  21 50 0C 50 F1 00 00 41 
   1058     13122.292 DT     07E0 Rx 8  22 EB 04 51 70 BD 0E F0 
   1059     13123.771 DT     07E0 Rx 8  23 00 4E 4E EA 11 31 14 
   1060     13125.231 DT     07E0 Rx 8  24 EB 5C 04 C2 BF D4 EB 
   1061     13126.734 DT     07E0 Rx 8  25 0C 05 41 EA 04 51 70 
   1062     13128.239 DT     07E0 Rx 8  26 BD 41 F4 80 11 4F F0 
   1063     13129.713 DT     07E0 Rx 8  27 00 0E 01 3C 90 E6 45 
   1064     13131.194 DT     07E0 Rx 8  28 EA 06 0E 8D E6 0C EA 
   1065     13132.364 DT     07E0 Rx 8  29 13 55 94 EA 0C 0F 08 
   1066     13133.798 DT     07E0 Rx 8  2A BF 95 EA 0C 0F 3F F4 
   1067     13135.162 DT     07E0 Rx 8  2B 3B AF 94 EA 0C 0F 0A 
   1068     13136.778 DT     07E0 Rx 8  2C D1 50 EA 01 34 7F F4 
   1069     13138.200 DT     07E0 Rx 8  2D 34 AF 95 EA 0C 0F 7F 
   1070     13139.644 DT     07E0 Rx 8  2E F4 25 AF 10 46 19 46 
   1071     13141.099 DT     07E0 Rx 8  2F 2C E7 95 EA 0C 0F 06 
   1072     13142.551 DT     07E0 Rx 8  20 D1 52 EA 03 35 3F F4 
   1073     13144.033 DT     07E0 Rx 8  21 FD AE 10 46 19 46 22 
   1074     13145.496 DT     07E0 Rx 8  22 E7 50 EA 41 06 18 BF 
   1075     13147.009 DT     07E0 Rx 8  23 52 EA 43 06 7F F4 C5 
   1076     13149.243 DT     07E0 Rx 8  24 AE 50 EA 41 04 7F F4 
   1077     13150.881 DT     07E0 Rx 8  25 0D AF 52 EA 43 05 7F 
   1078     13152.182 DT     07E0 Rx 8  26 F4 EB AE 12 E7 4F F0 
   1079     13153.591 DT     07E0 Rx 8  27 FF 3C 06 E0 00 BF 4F 
   1080     13155.038 DT     07E0 Rx 8  28 F0 01 0C 02 E0 00 BF 
   1081     13156.574 DT     07E0 Rx 8  29 4F F0 01 0C 4D F8 04 
   1082     13157.979 DT     07E0 Rx 8  2A CD 4F EA 41 0C 7F EA 
   1083     13159.408 DT     07E0 Rx 8  2B 6C 5C 4F EA 43 0C 18 
   1084     13161.023 DT     07E0 Rx 8  2C BF 7F EA 6C 5C 1B D0 
   1085     13162.439 DT     07E0 Rx 8  2D 01 B0 50 EA 41 0C 0C 
   1086     13163.860 DT     07E0 Rx 8  2E BF 52 EA 43 0C 91 EA 
   1087     13165.270 DT     07E0 Rx 8  2F 03 0F 02 BF 90 EA 02 
   1088     13166.771 DT     07E0 Rx 8  20 0F 00 20 70 47 10 F1 
   1089     13168.083 DT     07E0 Rx 8  21 00 0F 91 EA 03 0F 58 
   1090     13169.559 DT     07E0 Rx 8  22 BF 99 42 08 BF 90 42 
   1091     13171.032 DT     07E0 Rx 8  23 2C BF D8 17 6F EA E3 
   1092     13172.653 DT     07E0 Rx 8  24 70 40 F0 01 00 70 47 
   1093     13174.119 DT     07E0 Rx 8  25 4F EA 41 0C 7F EA 6C 
   1094     13175.489 DT     07E0 Rx 8  26 5C 02 D1 50 EA 01 3C 
   1095     13177.378 DT     07E0 Rx 8  27 07 D1 4F EA 43 0C 7F 
   1096     13178.799 DT     07E0 Rx 8  28 EA 6C 5C D6 D1 52 EA 
   1097     13180.049 DT     07E0 Rx 8  29 03 3C D3 D0 5D F8 04 
   1098     13181.615 DT     07E0 Rx 8  2A 0B 70 47 00 BF 84 46 
   1099     13183.103 DT     07E0 Rx 8  2B 10 46 62 46 8C 46 19 
   1100     13184.602 DT     07E0 Rx 8  2C 46 63 46 00 E0 00 BF 
   1101     13186.095 DT     07E0 Rx 8  2D 01 B5 FF F7 B7 FF 00 
   1102     13187.493 DT     07E0 Rx 8  2E 28 48 BF 10 F1 00 0F 
   1103     13188.985 DT     07E0 Rx 8  2F 01 BD 4D F8 08 ED FF 
   1104     13190.461 DT     07E0 Rx 8  20 F7 F4 FF 0C BF 01 20 
   1105     13191.938 DT     07E0 Rx 8  21 00 20 5D F8 08 FB 00 
   1106     13193.347 DT     07E0 Rx 8  22 BF 4D F8 08 ED FF F7 
   1107     13194.877 DT     07E0 Rx 8  23 EA FF 34 BF 01 20 00 
   1108     13196.320 DT     07E0 Rx 8  24 20 5D F8 08 FB 00 BF 
   1109     13197.778 DT     07E0 Rx 8  25 4D F8 08 ED FF F7 E0 
   1110     13199.251 DT     07E0 Rx 8  26 FF 94 BF 01 20 00 20 
   1111     13200.901 DT     07E0 Rx 8  27 5D F8 08 FB 00 BF 4D 
   1112     13202.301 DT     07E0 Rx 8  28 F8 08 ED FF F7 CE FF 
   1113     13203.811 DT     07E0 Rx 8  29 94 BF 01 20 00 20 5D 
   1114     13205.747 DT     07E0 Rx 8  2A F8 08 FB 00 BF 4D F8 
   1115     13207.107 DT     07E0 Rx 8  2B 08 ED FF F7 C4 FF 34 
   1116     13208.546 DT     07E0 Rx 8  2C BF 01 20 00 20 5D F8 
   1117     13210.081 DT     07E0 Rx 8  2D 08 FB 00 BF 4F EA 41 
   1118     13211.568 DT     07E0 Rx 8  2E 02 12 F5 00 12 15 D2 
   1119     13213.115 DT     07E0 Rx 8  2F 11 D5 6F F4 78 73 B3 
   1120     13214.652 DT     07E0 Rx 8  20 EB 62 52 12 D9 4F EA 
   1121     13216.120 DT     07E0 Rx 8  21 C1 23 43 F0 00 43 43 
   1122     13217.631 DT     07E0 Rx 8  22 EA 50 53 11 F0 00 4F 
   1123     13219.104 DT     07E0 Rx 8  23 23 FA 02 F0 18 BF 40 
   1124     13220.509 DT     07E0 Rx 8  24 42 70 47 4F F0 00 00 
   1125     13221.967 DT     07E0 Rx 8  25 70 47 50 EA 01 30 05 
   1126     13223.396 DT     07E0 Rx 8  26 D1 11 F0 00 40 08 BF 
   1127     13224.866 DT     07E0 Rx 8  27 6F F0 00 40 70 47 4F 
   1128     13226.418 DT     07E0 Rx 8  28 F0 00 00 70 47 00 BF 
   1129     13231.581 DT     07E0 Rx 8  29 4A 00 11 D2 12 F5 00 
   1130     13233.115 DT     07E0 Rx 8  2A 12 11 D2 0D D5 6F F4 
   1131     13234.670 DT     07E0 Rx 8  2B 78 73 B3 EB 62 52 0E 
   1132     13236.107 DT     07E0 Rx 8  2C D4 4F EA C1 23 43 F0 
   1133     13237.729 DT     07E0 Rx 8  2D 00 43 43 EA 50 53 23 
   1134     13239.520 DT     07E0 Rx 8  2E FA 02 F0 70 47 4F F0 
   1135     13241.144 DT     07E0 Rx 8  2F 00 00 70 47 50 EA 01 
   1136     13242.622 DT     07E0 Rx 8  20 30 02 D1 4F F0 FF 30 
   1137     13244.070 DT     07E0 Rx 8  21 70 47 4F F0 00 00 70 
   1138     13245.313 DT     07E0 Rx 8  22 47 4F EA 41 02 00 00 
   1139     13246.511 DT     07E8 Rx 8  03 7F 36 78 AA AA AA AA 
   1140     13253.495 DT     07E8 Rx 8  04 76 03 04 02 AA AA AA 
   1141     13254.189 DT     07E0 Rx 8  14 02 36 04 B2 F1 E0 43 
   1142     13255.453 DT     07E8 Rx 8  30 00 01 AA AA AA AA AA 
   1143     13257.217 DT     07E0 Rx 8  21 24 BF B3 F5 00 1C DC 
   1144     13258.696 DT     07E0 Rx 8  22 F1 FE 5C 0D D9 01 F0 
   1145     13259.859 DT     07E0 Rx 8  23 00 4C 4F EA C0 02 4C 
   1146     13261.154 DT     07E0 Rx 8  24 EA 50 70 B2 F1 00 4F 
   1147     13262.336 DT     07E0 Rx 8  25 40 EB 83 00 08 BF 20 
   1148     13263.599 DT     07E0 Rx 8  26 F0 01 00 70 47 11 F0 
   1149     13264.828 DT     07E0 Rx 8  27 80 4F 21 D1 13 F1 38 
   1150     13266.086 DT     07E0 Rx 8  28 72 BC BF 01 F0 00 40 
   1151     13267.443 DT     07E0 Rx 8  29 70 47 41 F4 80 11 4F 
   1152     13268.729 DT     07E0 Rx 8  2A EA 52 52 C2 F1 18 02 
   1153     13270.733 DT     07E0 Rx 8  2B C2 F1 20 0C 10 FA 0C 
   1154     13272.128 DT     07E0 Rx 8  2C F3 20 FA 02 F0 18 BF 
   1155     13273.240 DT     07E0 Rx 8  2D 40 F0 01 00 4F EA C1 
   1156     13274.711 DT     07E0 Rx 8  2E 23 4F EA D3 23 03 FA 
   1157     13276.302 DT     07E0 Rx 8  2F 0C FC 40 EA 0C 00 23 
   1158     13277.813 DT     07E0 Rx 8  20 FA 02 F3 4F EA 43 03 
   1159     13279.086 DT     07E0 Rx 8  21 CC E7 7F EA 62 53 07 
   1160     13280.303 DT     07E0 Rx 8  22 D1 50 EA 01 33 1E BF 
   1161     13281.743 DT     07E0 Rx 8  23 4F F0 FE 40 40 F4 40 
   1162     13283.171 DT     07E0 Rx 8  24 00 70 47 01 F0 00 40 
   1163     13284.769 DT     07E0 Rx 8  25 40 F0 FE 40 40 F4 00 
   1164     13286.281 DT     07E0 Rx 8  26 00 70 47 00 BF 7B B9 
   1165     13287.674 DT     07E0 Rx 8  27 72 B9 00 29 BE BF 00 
   1166     13289.079 DT     07E0 Rx 8  28 20 4F F0 00 41 06 E0 
   1167     13290.430 DT     07E0 Rx 8  29 08 BF 00 28 1C BF 6F 
   1168     13291.863 DT     07E0 Rx 8  2A F0 00 41 4F F0 FF 30 
   1169     13293.305 DT     07E0 Rx 8  2B 00 F0 F3 B9 AD F1 08 
   1170     13294.730 DT     07E0 Rx 8  2C 0C 6D E9 04 CE 00 29 
   1171     13296.142 DT     07E0 Rx 8  2D 09 DB 00 2B 1A DB 00 
   1172     13297.552 DT     07E0 Rx 8  2E F0 81 F8 DD F8 04 E0 
   1173     13298.937 DT     07E0 Rx 8  2F DD E9 02 23 04 B0 70 
   1174     13300.392 DT     07E0 Rx 8  20 47 40 42 61 EB 41 01 
   1175     13301.870 DT     07E0 Rx 8  21 00 2B 1B DB 00 F0 74 
   1176     13303.264 DT     07E0 Rx 8  22 F8 DD F8 04 E0 DD E9 
   1177     13304.717 DT     07E0 Rx 8  23 02 23 04 B0 40 42 61 
   1178     13306.055 DT     07E0 Rx 8  24 EB 41 01 52 42 63 EB 
   1179     13307.574 DT     07E0 Rx 8  25 43 03 70 47 52 42 63 
   1180     13308.906 DT     07E0 Rx 8  26 EB 43 03 00 F0 63 F8 
   1181     13310.237 DT     07E0 Rx 8  27 DD F8 04 E0 DD E9 02 
   1182     13311.517 DT     07E0 Rx 8  28 23 04 B0 40 42 61 EB 
   1183     13312.884 DT     07E0 Rx 8  29 41 01 70 47 52 42 63 
   1184     13314.202 DT     07E0 Rx 8  2A EB 43 03 00 F0 55 F8 
   1185     13315.410 DT     07E0 Rx 8  2B DD F8 04 E0 DD E9 02 
   1186     13316.631 DT     07E0 Rx 8  2C 23 04 B0 52 42 63 EB 
   1187     13318.042 DT     07E0 Rx 8  2D 43 03 70 47 53 B9 4A 
   1188     13319.385 DT     07E0 Rx 8  2E B9 00 29 08 BF 00 28 
   1189     13320.674 DT     07E0 Rx 8  2F 1C BF 4F F0 FF 31 4F 
   1190     13321.953 DT     07E0 Rx 8  20 F0 FF 30 00 F0 A8 B9 
   1191     13323.282 DT     07E0 Rx 8  21 AD F1 08 0C 6D E9 04 
   1192     13324.730 DT     07E0 Rx 8  22 CE 00 F0 3A F8 DD F8 
   1193     13326.078 DT     07E0 Rx 8  23 04 E0 DD E9 02 23 04 
   1194     13327.495 DT     07E0 Rx 8  24 B0 70 47 07 EE 90 0A 
   1195     13329.001 DT     07E0 Rx 8  25 F5 EE C0 7A F1 EE 10 
   1196     13330.588 DT     07E0 Rx 8  26 FA 01 D4 00 F0 0B B8 
   1197     13331.988 DT     07E0 Rx 8  27 F1 EE 67 7A 08 B5 17 
   1198     13333.358 DT     07E0 Rx 8  28 EE 90 0A 00 F0 04 F8 
   1199     13334.725 DT     07E0 Rx 8  29 40 42 61 EB 41 01 08 
   1200     13336.317 DT     07E0 Rx 8  2A BD D0 B5 FF F7 F7 FB 
   1201     13337.891 DT     07E0 Rx 8  2B 0C 4B 00 22 06 46 0F 
   1202     13339.495 DT     07E0 Rx 8  2C 46 FF F7 49 FC FF F7 
   1203     13341.206 DT     07E0 Rx 8  2D 09 FF 04 46 FF F7 CA 
   1204     13342.791 DT     07E0 Rx 8  2E FB 07 4B 00 22 FF F7 
   1205     13344.362 DT     07E0 Rx 8  2F 40 FC 02 46 0B 46 30 
   1206     13345.873 DT     07E0 Rx 8  20 46 39 46 FF F7 82 FA 
   1207     13347.491 DT     07E0 Rx 8  21 FF F7 FA FE 21 46 D0 
   1208     13349.154 DT     07E0 Rx 8  22 BD 00 00 F0 3D 00 00 
   1209     13350.708 DT     07E0 Rx 8  23 F0 41 2D E9 F0 47 08 
   1210     13352.252 DT     07E0 Rx 8  24 9D 04 46 8E 46 00 2B 
   1211     13353.812 DT     07E0 Rx 8  25 4D D1 8A 42 94 46 69 
   1212     13355.396 DT     07E0 Rx 8  26 D9 B2 FA 82 F2 52 B1 
   1213     13356.945 DT     07E0 Rx 8  27 01 FA 02 F3 C2 F1 20 
   1214     13358.483 DT     07E0 Rx 8  28 01 20 FA 01 F1 0C FA 
   1215     13359.833 DT     07E0 Rx 8  29 02 FC 41 EA 03 0E 94 
   1216     13361.340 DT     07E0 Rx 8  2A 40 4F EA 1C 48 21 0C 
   1217     13362.977 DT     07E0 Rx 8  2B BE FB F8 F6 1F FA 8C 
   1218     13364.536 DT     07E0 Rx 8  2C F7 08 FB 16 E3 41 EA 
   1219     13366.208 DT     07E0 Rx 8  2D 03 43 06 FB 07 F1 99 
   1220     13369.183 DT     07E0 Rx 8  2E 42 0A D9 1C EB 03 03 
   1221     13370.879 DT     07E0 Rx 8  2F 06 F1 FF 30 80 F0 1F 
   1222     13372.311 DT     07E0 Rx 8  20 81 99 42 40 F2 1C 81 
   1223     13373.807 DT     07E0 Rx 8  21 02 3E 63 44 5B 1A A4 
   1224     13375.250 DT     07E0 Rx 8  22 B2 B3 FB F8 F0 08 FB 
   1225     13376.612 DT     07E0 Rx 8  23 10 33 44 EA 03 44 00 
   1226     13378.032 DT     07E0 Rx 8  24 FB 07 F7 A7 42 0A D9 
   1227     13379.434 DT     07E0 Rx 8  25 1C EB 04 04 00 F1 FF 
   1228     13380.873 DT     07E0 Rx 8  26 33 80 F0 0A 81 A7 42 
   1229     13382.353 DT     07E0 Rx 8  27 40 F2 07 81 64 44 02 
   1230     13383.765 DT     07E0 Rx 8  28 38 40 EA 06 40 E4 1B 
   1231     13385.155 DT     07E0 Rx 8  29 00 26 1D B1 D4 40 00 
   1232     13386.596 DT     07E0 Rx 8  2A 23 C5 E9 00 43 31 46 
   1233     13388.043 DT     07E0 Rx 8  2B BD E8 F0 87 8B 42 09 
   1234     13389.375 DT     07E0 Rx 8  2C D9 00 2D 00 F0 EF 80 
   1235     13391.071 DT     07E0 Rx 8  2D 00 26 C5 E9 00 01 30 
   1236     13392.488 DT     07E0 Rx 8  2E 46 31 46 BD E8 F0 87 
   1237     13393.868 DT     07E0 Rx 8  2F B3 FA 83 F6 00 2E 4A 
   1238     13395.271 DT     07E0 Rx 8  20 D1 8B 42 02 D3 82 42 
   1239     13396.731 DT     07E0 Rx 8  21 00 F2 F9 80 84 1A 61 
   1240     13398.676 DT     07E0 Rx 8  22 EB 03 03 01 20 9E 46 
   1241     13400.105 DT     07E0 Rx 8  23 00 2D E0 D0 C5 E9 00 
   1242     13401.461 DT     07E0 Rx 8  24 4E DD E7 02 B9 FF DE 
   1243     13402.866 DT     07E0 Rx 8  25 B2 FA 82 F2 00 2A 40 
   1244     13404.311 DT     07E0 Rx 8  26 F0 92 80 A1 EB 0C 01 
   1245     13405.895 DT     07E0 Rx 8  27 4F EA 1C 47 1F FA 8C 
   1246     13407.122 DT     07E0 Rx 8  28 FE 01 26 20 0C B1 FB 
   1247     13408.566 DT     07E0 Rx 8  29 F7 F3 07 FB 13 11 40 
   1248     13410.035 DT     07E0 Rx 8  2A EA 01 41 0E FB 03 F0 
   1249     13411.368 DT     07E0 Rx 8  2B 88 42 08 D9 1C EB 01 
   1250     13412.741 DT     07E0 Rx 8  2C 01 03 F1 FF 38 02 D2 
   1251     13414.327 DT     07E0 Rx 8  2D 88 42 00 F2 CB 80 43 
   1252     13415.751 DT     07E0 Rx 8  2E 46 09 1A A4 B2 B1 FB 
   1253     13417.219 DT     07E0 Rx 8  2F F7 F0 07 FB 10 11 44 
   1254     13418.660 DT     07E0 Rx 8  20 EA 01 44 0E FB 00 FE 
   1255     13420.102 DT     07E0 Rx 8  21 A6 45 08 D9 1C EB 04 
   1256     13421.727 DT     07E0 Rx 8  22 04 00 F1 FF 31 02 D2 
   1257     13423.167 DT     07E0 Rx 8  23 A6 45 00 F2 BB 80 08 
   1258     13424.614 DT     07E0 Rx 8  24 46 A4 EB 0E 04 40 EA 
   1259     13426.049 DT     07E0 Rx 8  25 03 40 9C E7 C6 F1 20 
   1260     13427.425 DT     07E0 Rx 8  26 07 B3 40 22 FA 07 FC 
   1261     13428.877 DT     07E0 Rx 8  27 4C EA 03 0C 20 FA 07 
   1262     13430.166 DT     07E0 Rx 8  28 F4 01 FA 06 F3 1C 43 
   1263     13431.618 DT     07E0 Rx 8  29 F9 40 4F EA 1C 49 00 
   1264     13433.001 DT     07E0 Rx 8  2A FA 06 F3 B1 FB F9 F8 
   1265     13434.522 DT     07E0 Rx 8  2B 20 0C 1F FA 8C FE 09 
   1266     13435.915 DT     07E0 Rx 8  2C FB 18 11 40 EA 01 41 
   1267     13437.337 DT     07E0 Rx 8  2D 08 FB 0E F0 88 42 02 
   1268     13438.941 DT     07E0 Rx 8  2E FA 06 F2 0B D9 1C EB 
   1269     13440.451 DT     07E0 Rx 8  2F 01 01 08 F1 FF 3A 80 
   1270     13442.074 DT     07E0 Rx 8  20 F0 88 80 88 42 40 F2 
   1271     13443.414 DT     07E0 Rx 8  21 85 80 A8 F1 02 08 61 
   1272     13444.841 DT     07E0 Rx 8  22 44 09 1A A4 B2 B1 FB 
   1273     13446.237 DT     07E0 Rx 8  23 F9 F0 09 FB 10 11 44 
   1274     13447.646 DT     07E0 Rx 8  24 EA 01 41 00 FB 0E FE 
   1275     13449.053 DT     07E0 Rx 8  25 8E 45 08 D9 1C EB 01 
   1276     13450.517 DT     07E0 Rx 8  26 01 00 F1 FF 34 6C D2 
   1277     13451.905 DT     07E0 Rx 8  27 8E 45 6A D9 02 38 61 
   1278     13453.788 DT     07E0 Rx 8  28 44 40 EA 08 40 A0 FB 
   1279     13455.314 DT     07E0 Rx 8  29 02 94 A1 EB 0E 01 A1 
   1280     13456.740 DT     07E0 Rx 8  2A 42 C8 46 A6 46 56 D3 
   1281     13458.202 DT     07E0 Rx 8  2B 53 D0 5D B1 B3 EB 08 
   1282     13459.698 DT     07E0 Rx 8  2C 02 61 EB 0E 01 01 FA 
   1283     13461.165 DT     07E0 Rx 8  2D 07 F7 22 FA 06 F3 F1 
   1284     13462.537 DT     07E0 Rx 8  2E 40 1F 43 C5 E9 00 71 
   1285     13463.960 DT     07E0 Rx 8  2F 00 26 31 46 BD E8 F0 
   1286     13465.350 DT     07E0 Rx 8  20 87 C2 F1 20 03 D8 40 
   1287     13466.773 DT     07E0 Rx 8  21 0C FA 02 FC 21 FA 03 
   1288     13468.261 DT     07E0 Rx 8  22 F3 91 40 01 43 00 00 
   1289     13469.462 DT     07E8 Rx 8  03 7F 36 78 AA AA AA AA 
   1290     13476.434 DT     07E8 Rx 8  04 76 04 04 02 AA AA AA 
   1291     13477.184 DT     07E0 Rx 8  14 02 36 05 4F EA 1C 47 
   1292     13478.415 DT     07E8 Rx 8  30 00 01 AA AA AA AA AA 
   1293     13480.410 DT     07E0 Rx 8  21 1F FA 8C FE B3 FB F7 
   1294     13481.987 DT     07E0 Rx 8  22 F0 07 FB 10 36 0B 0C 
   1295     13483.253 DT     07E0 Rx 8  23 43 EA 06 43 00 FB 0E 
   1296     13484.756 DT     07E0 Rx 8  24 F6 9E 42 04 FA 02 F4 
   1297     13486.053 DT     07E0 Rx 8  25 08 D9 1C EB 03 03 00 
   1298     13487.344 DT     07E0 Rx 8  26 F1 FF 38 2F D2 9E 42 
   1299     13488.771 DT     07E0 Rx 8  27 2D D9 02 38 63 44 9B 
   1300     13490.137 DT     07E0 Rx 8  28 1B 89 B2 B3 FB F7 F6 
   1301     13491.457 DT     07E0 Rx 8  29 07 FB 16 33 41 EA 03 
   1302     13492.791 DT     07E0 Rx 8  2A 41 06 FB 0E F3 8B 42 
   1303     13494.170 DT     07E0 Rx 8  2B 08 D9 1C EB 01 01 06 
   1304     13495.422 DT     07E0 Rx 8  2C F1 FF 38 16 D2 8B 42 
   1305     13496.706 DT     07E0 Rx 8  2D 14 D9 02 3E 61 44 C9 
   1306     13498.161 DT     07E0 Rx 8  2E 1A 46 EA 00 46 38 E7 
   1307     13499.588 DT     07E0 Rx 8  2F 2E 46 28 46 05 E7 06 
   1308     13500.995 DT     07E0 Rx 8  20 46 E3 E6 18 46 F8 E6 
   1309     13502.447 DT     07E0 Rx 8  21 4B 45 A9 D2 B9 EB 02 
   1310     13503.837 DT     07E0 Rx 8  22 08 64 EB 0C 0E 01 38 
   1311     13505.185 DT     07E0 Rx 8  23 A3 E7 46 46 EA E7 20 
   1312     13506.473 DT     07E0 Rx 8  24 46 94 E7 40 46 D1 E7 
   1313     13507.687 DT     07E0 Rx 8  25 D0 46 7B E7 02 3B 61 
   1314     13508.965 DT     07E0 Rx 8  26 44 32 E7 30 46 09 E7 
   1315     13510.301 DT     07E0 Rx 8  27 64 44 02 38 42 E7 70 
   1316     13511.603 DT     07E0 Rx 8  28 47 00 BF 03 46 13 F8 
   1317     13512.934 DT     07E0 Rx 8  29 01 2B 00 2A FB D1 18 
   1318     13514.323 DT     07E0 Rx 8  2A 1A 01 38 70 47 00 00 
   1319     13515.578 DT     07E0 Rx 8  2B 00 00 00 00 00 00 01 
   1320     13516.928 DT     07E0 Rx 8  2C F0 FF 01 10 2A 2B DB 
   1321     13518.279 DT     07E0 Rx 8  2D 10 F0 07 0F 08 D0 10 
   1322     13519.627 DT     07E0 Rx 8  2E F8 01 3B 01 3A 8B 42 
   1323     13521.081 DT     07E0 Rx 8  2F 2D D0 10 F0 07 0F 42 
   1324     13522.851 DT     07E0 Rx 8  20 B3 F6 D1 F0 B4 41 EA 
   1325     13524.222 DT     07E0 Rx 8  21 01 21 41 EA 01 41 22 
   1326     13525.576 DT     07E0 Rx 8  22 F0 07 04 7F F0 00 07 
   1327     13526.983 DT     07E0 Rx 8  23 00 23 F0 E8 02 56 08 
   1328     13528.373 DT     07E0 Rx 8  24 3C 85 EA 01 05 86 EA 
   1329     13529.845 DT     07E0 Rx 8  25 01 06 85 FA 47 F5 A3 
   1330     13531.257 DT     07E0 Rx 8  26 FA 87 F5 86 FA 47 F6 
   1331     13532.708 DT     07E0 Rx 8  27 A5 FA 87 F6 8E B9 EE 
   1332     13534.109 DT     07E0 Rx 8  28 D1 F0 BC 01 F0 FF 01 
   1333     13535.572 DT     07E0 Rx 8  29 02 F0 07 02 32 B1 10 
   1334     13536.919 DT     07E0 Rx 8  2A F8 01 3B 01 3A 83 EA 
   1335     13538.272 DT     07E0 Rx 8  2B 01 03 13 B1 F8 D1 00 
   1336     13539.680 DT     07E0 Rx 8  2C 20 70 47 01 38 70 47 
   1337     13541.034 DT     07E0 Rx 8  2D 00 2D 06 BF 35 46 03 
   1338     13542.372 DT     07E0 Rx 8  2E 38 07 38 15 F0 01 0F 
   1339     13543.773 DT     07E0 Rx 8  2F 07 D1 01 30 15 F4 80 
   1340     13545.264 DT     07E0 Rx 8  20 7F 02 BF 01 30 15 F4 
   1341     13546.673 DT     07E0 Rx 8  21 C0 3F 01 30 F0 BC 01 
   1342     13547.997 DT     07E0 Rx 8  22 38 70 47 00 BF 4F EA 
   1343     13549.233 DT     07E0 Rx 8  23 41 0C 7F EA 6C 5C 02 
   1344     13550.560 DT     07E0 Rx 8  24 D1 50 EA 01 3C 0A D1 
   1345     13551.955 DT     07E0 Rx 8  25 4F EA 43 0C 7F EA 6C 
   1346     13553.280 DT     07E0 Rx 8  26 5C 02 D1 52 EA 03 3C 
   1347     13554.698 DT     07E0 Rx 8  27 02 D1 4F F0 00 00 70 
   1348     13556.993 DT     07E0 Rx 8  28 47 4F F0 01 00 70 47 
   1349     13561.572 DT     07E0 Rx 8  29 70 47 00 BF 03 20 15 
   1350     13564.566 DT     07E0 Rx 8  2A F0 17 B9 00 BF FE E7 
   1351     13566.895 DT     07E0 Rx 8  2B 00 BF FE E7 00 BF FE 
   1352     13569.272 DT     07E0 Rx 8  2C E7 00 BF 70 47 00 BF 
   1353     13570.895 DT     07E0 Rx 8  2D 70 47 00 BF 70 47 00 
   1354     13572.890 DT     07E0 Rx 8  2E BF 08 B5 3F F0 93 F8 
   1355     13575.430 DT     07E0 Rx 8  2F 3E F0 23 FB 3E F0 69 
   1356     13577.489 DT     07E0 Rx 8  20 FB 3E F0 1F FF 3E F0 
   1357     13579.164 DT     07E0 Rx 8  21 11 FC 9A 48 1A F0 BA 
   1358     13580.872 DT     07E0 Rx 8  22 FF 00 28 40 F0 28 81 
   1359     13582.386 DT     07E0 Rx 8  23 3F F0 69 F9 3F F0 13 
   1360     13583.846 DT     07E0 Rx 8  24 F8 96 48 4F F4 00 61 
   1361     13585.285 DT     07E0 Rx 8  25 1B F0 D6 FA 4F F4 00 
   1362     13586.716 DT     07E0 Rx 8  26 71 92 48 1B F0 D1 FA 
   1363     13588.147 DT     07E0 Rx 8  27 3F F0 BD F8 3F F0 0B 
   1364     13589.523 DT     07E0 Rx 8  28 F9 3F F0 8D F8 3E F0 
   1365     13590.877 DT     07E0 Rx 8  29 93 FF 3F F0 73 F9 3F 
   1366     13592.365 DT     07E0 Rx 8  2A F0 57 FA 3F F0 0D FB 
   1367     13593.711 DT     07E0 Rx 8  2B 3F F0 6F FB 3F F0 F5 
   1368     13595.021 DT     07E0 Rx 8  2C FB 3F F0 43 FC 3F F0 
   1369     13596.439 DT     07E0 Rx 8  2D 39 FD 3F F0 7D FD 3F 
   1370     13597.752 DT     07E0 Rx 8  2E F0 CB FD 3E F0 75 FE 
   1371     13599.101 DT     07E0 Rx 8  2F 3F F0 8F F8 40 F0 8D 
   1372     13600.414 DT     07E0 Rx 8  20 FC 44 F0 5B FC 81 48 
   1373     13601.821 DT     07E0 Rx 8  21 45 F0 D6 F8 80 48 45 
   1374     13603.186 DT     07E0 Rx 8  22 F0 D3 F8 80 48 45 F0 
   1375     13604.519 DT     07E0 Rx 8  23 D0 F8 7F 48 45 F0 CD 
   1376     13605.812 DT     07E0 Rx 8  24 F8 3E F0 DF FE 7E 4A 
   1377     13607.442 DT     07E0 Rx 8  25 7E 49 79 48 06 23 3E 
   1378     13608.646 DT     07E0 Rx 8  26 F0 61 FF 3E F0 F9 FE 
   1379     13610.106 DT     07E0 Rx 8  27 7C 4A 7C 49 76 48 06 
   1380     13611.515 DT     07E0 Rx 8  28 23 3E F0 59 FF 3E F0 
   1381     13612.882 DT     07E0 Rx 8  29 13 FF 7A 4A 7A 49 73 
   1382     13614.269 DT     07E0 Rx 8  2A 48 01 23 3E F0 51 FF 
   1383     13615.630 DT     07E0 Rx 8  2B 3E F0 2D FF 78 4A 76 
   1384     13616.898 DT     07E0 Rx 8  2C 49 70 48 01 23 3E F0 
   1385     13618.130 DT     07E0 Rx 8  2D 49 FF 3E F0 AB FC 3E 
   1386     13619.324 DT     07E0 Rx 8  2E F0 05 FC 3E F0 49 FD 
   1387     13620.722 DT     07E0 Rx 8  2F 68 48 01 21 45 F0 CF 
   1388     13621.998 DT     07E0 Rx 8  20 F8 67 48 01 21 45 F0 
   1389     13623.327 DT     07E0 Rx 8  21 CB F8 66 48 01 21 45 
   1390     13624.841 DT     07E0 Rx 8  22 F0 C7 F8 65 48 01 21 
   1391     13626.239 DT     07E0 Rx 8  23 45 F0 C3 F8 3E F0 DD 
   1392     13627.567 DT     07E0 Rx 8  24 FD 5F 48 00 21 45 F0 
   1393     13628.924 DT     07E0 Rx 8  25 BD F8 5E 48 00 21 45 
   1394     13630.276 DT     07E0 Rx 8  26 F0 B9 F8 5D 48 00 21 
   1395     13631.833 DT     07E0 Rx 8  27 45 F0 B5 F8 00 21 5B 
   1396     13633.207 DT     07E0 Rx 8  28 48 45 F0 B1 F8 57 48 
   1397     13634.492 DT     07E0 Rx 8  29 45 F0 82 F8 56 48 45 
   1398     13635.803 DT     07E0 Rx 8  2A F0 7F F8 56 48 45 F0 
   1399     13637.087 DT     07E0 Rx 8  2B 7C F8 55 48 45 F0 79 
   1400     13638.355 DT     07E0 Rx 8  2C F8 0F 20 45 F0 A8 F8 
   1401     13639.645 DT     07E0 Rx 8  2D F0 20 45 F0 A5 F8 59 
   1402     13640.977 DT     07E0 Rx 8  2E 48 45 F0 A2 F8 58 48 
   1403     13642.141 DT     07E0 Rx 8  2F 45 F0 9F F8 3E F0 7F 
   1404     13643.481 DT     07E0 Rx 8  20 FE 4E 4A 4E 49 49 48 
   1405     13644.836 DT     07E0 Rx 8  21 3C 23 3E F0 01 FF 3E 
   1406     13646.186 DT     07E0 Rx 8  22 F0 99 FE 4C 4A 4C 49 
   1407     13647.533 DT     07E0 Rx 8  23 46 48 3C 23 3E F0 F9 
   1408     13648.842 DT     07E0 Rx 8  24 FE 3E F0 B3 FE 4A 4A 
   1409     13650.191 DT     07E0 Rx 8  25 4A 49 43 48 01 23 3E 
   1410     13651.548 DT     07E0 Rx 8  26 F0 F1 FE 3E F0 CD FE 
   1411     13652.948 DT     07E0 Rx 8  27 01 23 47 4A 46 49 3F 
   1412     13654.382 DT     07E0 Rx 8  28 48 3E F0 E9 FE 3B 48 
   1413     13655.807 DT     07E0 Rx 8  29 01 21 45 F0 75 F8 3A 
   1414     13657.150 DT     07E0 Rx 8  2A 48 01 21 45 F0 71 F8 
   1415     13658.470 DT     07E0 Rx 8  2B 39 48 01 21 45 F0 6D 
   1416     13659.799 DT     07E0 Rx 8  2C F8 38 48 01 21 45 F0 
   1417     13661.199 DT     07E0 Rx 8  2D 69 F8 40 48 00 21 13 
   1418     13662.483 DT     07E0 Rx 8  2E F0 D5 F9 3E 48 02 21 
   1419     13663.888 DT     07E0 Rx 8  2F 13 F0 D1 F9 3C 48 04 
   1420     13665.367 DT     07E0 Rx 8  20 21 13 F0 CD F9 3F F0 
   1421     13667.142 DT     07E0 Rx 8  21 69 FD 3A 48 01 22 05 
   1422     13668.543 DT     07E0 Rx 8  22 21 45 F0 18 F8 38 48 
   1423     13669.958 DT     07E0 Rx 8  23 01 22 07 21 45 F0 13 
   1424     13671.324 DT     07E0 Rx 8  24 F8 01 22 06 21 36 48 
   1425     13672.745 DT     07E0 Rx 8  25 45 F0 0E F8 3F F0 0E 
   1426     13674.152 DT     07E0 Rx 8  26 FE 44 F0 D8 FD 44 F0 
   1427     13675.915 DT     07E0 Rx 8  27 A8 FE 40 F0 92 FD 44 
   1428     13677.294 DT     07E0 Rx 8  28 F0 2A F9 40 F0 0E F9 
   1429     13678.696 DT     07E0 Rx 8  29 40 F0 20 F9 40 F0 16 
   1430     13680.006 DT     07E0 Rx 8  2A FA 40 F0 38 F9 40 F0 
   1431     13681.337 DT     07E0 Rx 8  2B 28 FB 40 F0 1C FB 1D 
   1432     13682.697 DT     07E0 Rx 8  2C F0 A2 FC 40 F0 40 F8 
   1433     13684.105 DT     07E0 Rx 8  2D 40 F0 BC FB 44 F0 84 
   1434     13685.431 DT     07E0 Rx 8  2E FF 44 F0 EC FE 40 F0 
   1435     13686.827 DT     07E0 Rx 8  2F D8 F8 40 F0 B0 F9 40 
   1436     13688.201 DT     07E0 Rx 8  20 F0 EE FA 44 F0 E0 FF 
   1437     13689.516 DT     07E0 Rx 8  21 3F F0 4E FF 3F F0 CC 
   1438     13690.832 DT     07E0 Rx 8  22 FD 42 F0 78 FD 00 00 
   1439     13692.005 DT     07E8 Rx 8  03 7F 36 78 AA AA AA AA 
   1440     13698.980 DT     07E8 Rx 8  04 76 05 04 02 AA AA AA 
   1441     13699.452 DT     07E0 Rx 8  14 02 36 06 40 F0 16 FB 
   1442     13700.710 DT     07E8 Rx 8  30 00 01 AA AA AA AA AA 
   1443     13702.210 DT     07E0 Rx 8  21 40 F0 56 FB 3F F0 B6 
   1444     13703.520 DT     07E0 Rx 8  22 FD 40 F0 8A FB 1A 4B 
   1445     13704.818 DT     07E0 Rx 8  23 4F F4 00 62 1A 80 0F 
   1446     13706.210 DT     07E0 Rx 8  24 F0 3E F8 42 F0 D6 FE 
   1447     13707.551 DT     07E0 Rx 8  25 FA E7 03 48 1A F0 04 
   1448     13708.964 DT     07E0 Rx 8  26 FF 01 20 14 F0 CB FF 
   1449     13710.304 DT     07E0 Rx 8  27 D0 E6 1D 00 24 00 00 
   1450     13711.754 DT     07E0 Rx 8  28 14 01 40 08 00 02 40 
   1451     13713.144 DT     07E0 Rx 8  29 1C 00 02 40 08 04 02 
   1452     13714.491 DT     07E0 Rx 8  2A 40 1C 04 02 40 00 7C 
   1453     13715.925 DT     07E0 Rx 8  2B 01 20 4C 24 01 40 F0 
   1454     13717.410 DT     07E0 Rx 8  2C 7C 01 20 4C 3C 01 40 
   1455     13718.761 DT     07E0 Rx 8  2D 04 0A 00 20 38 00 00 
   1456     13720.366 DT     07E0 Rx 8  2E 40 06 0A 00 20 0F 00 
   1457     13721.897 DT     07E0 Rx 8  2F 00 10 F0 00 00 10 00 
   1458     13723.493 DT     07E0 Rx 8  20 2C 01 40 00 24 01 40 
   1459     13725.386 DT     07E0 Rx 8  21 00 28 01 40 00 3C 01 
   1460     13726.834 DT     07E0 Rx 8  22 40 A2 BA 00 20 01 28 
   1461     13728.508 DT     07E0 Rx 8  23 04 D0 02 28 18 D0 60 
   1462     13730.097 DT     07E0 Rx 8  24 B1 00 20 70 47 0D 29 
   1463     13731.565 DT     07E0 Rx 8  25 FB D8 DF E8 01 F0 2B 
   1464     13733.114 DT     07E0 Rx 8  26 4F 52 55 58 5B 5E 61 
   1465     13734.587 DT     07E0 Rx 8  27 64 67 6A 6D 70 73 0D 
   1466     13736.123 DT     07E0 Rx 8  28 29 F0 D8 DF E8 01 F0 
   1467     13737.628 DT     07E0 Rx 8  29 6B 6E 71 2C 2F 32 35 
   1468     13739.229 DT     07E0 Rx 8  2A 38 3B 3E 41 26 29 23 
   1469     13740.650 DT     07E0 Rx 8  2B 05 29 E5 D8 DF E8 01 
   1470     13742.436 DT     07E0 Rx 8  2C F0 06 09 0C 0F 12 03 
   1471     13743.951 DT     07E0 Rx 8  2D 32 4B 58 89 70 47 31 
   1472     13745.344 DT     07E0 Rx 8  2E 4B 18 88 70 47 2F 4B 
   1473     13746.960 DT     07E0 Rx 8  2F 58 88 70 47 2E 4B 98 
   1474     13748.567 DT     07E0 Rx 8  20 88 70 47 2C 4B D8 88 
   1475     13750.168 DT     07E0 Rx 8  21 70 47 2B 4B 18 89 70 
   1476     13751.538 DT     07E0 Rx 8  22 47 2A 4B 58 88 70 47 
   1477     13752.926 DT     07E0 Rx 8  23 29 4B 98 8E 70 47 27 
   1478     13754.415 DT     07E0 Rx 8  24 4B 98 8D 70 47 26 4B 
   1479     13755.905 DT     07E0 Rx 8  25 18 8E 70 47 24 4B 98 
   1480     13757.270 DT     07E0 Rx 8  26 89 70 47 23 4B 18 8A 
   1481     13758.652 DT     07E0 Rx 8  27 70 47 21 4B 98 8A 70 
   1482     13760.080 DT     07E0 Rx 8  28 47 20 4B 18 8B 70 47 
   1483     13761.518 DT     07E0 Rx 8  29 1E 4B 98 8B 70 47 1D 
   1484     13762.918 DT     07E0 Rx 8  2A 4B 18 8C 70 47 1B 4B 
   1485     13764.347 DT     07E0 Rx 8  2B 98 8C 70 47 1A 4B 18 
   1486     13765.818 DT     07E0 Rx 8  2C 8D 70 47 18 4B D8 88 
   1487     13767.324 DT     07E0 Rx 8  2D 70 47 17 4B 58 89 70 
   1488     13768.705 DT     07E0 Rx 8  2E 47 15 4B D8 89 70 47 
   1489     13770.067 DT     07E0 Rx 8  2F 14 4B 58 8A 70 47 12 
   1490     13771.530 DT     07E0 Rx 8  20 4B D8 8A 70 47 11 4B 
   1491     13773.083 DT     07E0 Rx 8  21 58 8B 70 47 0F 4B D8 
   1492     13774.737 DT     07E0 Rx 8  22 8B 70 47 0E 4B 58 8C 
   1493     13776.210 DT     07E0 Rx 8  23 70 47 0C 4B D8 8C 70 
   1494     13777.925 DT     07E0 Rx 8  24 47 0B 4B 58 8D 70 47 
   1495     13779.339 DT     07E0 Rx 8  25 09 4B D8 8D 70 47 08 
   1496     13780.793 DT     07E0 Rx 8  26 4B 58 8E 70 47 06 4B 
   1497     13782.266 DT     07E0 Rx 8  27 D8 8E 70 47 05 4B 18 
   1498     13783.894 DT     07E0 Rx 8  28 88 70 47 03 4B 98 88 
   1499     13785.438 DT     07E0 Rx 8  29 70 47 02 4B 18 89 70 
   1500     13786.896 DT     07E0 Rx 8  2A 47 F0 7C 01 20 00 7C 
   1501     13788.595 DT     07E0 Rx 8  2B 01 20 10 B5 12 4C 20 
   1502     13790.237 DT     07E0 Rx 8  2C 46 1A F0 4B FB 00 28 
   1503     13791.823 DT     07E0 Rx 8  2D FA D1 10 4C 20 46 1A 
   1504     13793.382 DT     07E0 Rx 8  2E F0 45 FB 00 28 FA D1 
   1505     13794.914 DT     07E0 Rx 8  2F 02 20 1A F0 DE FF 00 
   1506     13796.531 DT     07E0 Rx 8  20 28 FA D0 09 48 02 21 
   1507     13798.055 DT     07E0 Rx 8  21 1A F0 3E FB 09 48 02 
   1508     13799.545 DT     07E0 Rx 8  22 21 1A F0 3A FB 06 48 
   1509     13801.044 DT     07E0 Rx 8  23 02 21 1A F0 36 FB 02 
   1510     13802.669 DT     07E0 Rx 8  24 20 44 F0 35 FF BD E8 
   1511     13804.297 DT     07E0 Rx 8  25 10 40 20 20 44 F0 30 
   1512     13805.776 DT     07E0 Rx 8  26 BF 00 24 01 40 00 3C 
   1513     13807.263 DT     07E0 Rx 8  27 01 40 00 28 01 40 12 
   1514     13808.757 DT     07E0 Rx 8  28 4B 13 48 70 B5 4F F4 
   1515     13810.179 DT     07E0 Rx 8  29 00 61 01 24 11 4D 1C 
   1516     13811.650 DT     07E0 Rx 8  2A 80 11 4E 1B F0 C5 F8 
   1517     13813.099 DT     07E0 Rx 8  2B 11 48 80 21 1B F0 89 
   1518     13814.581 DT     07E0 Rx 8  2C FB 21 46 28 46 1A F0 
   1519     13816.072 DT     07E0 Rx 8  2D 15 FB 21 46 30 46 1A 
   1520     13817.316 DT     07E0 Rx 8  2E F0 11 FB 0C 4B 30 46 
   1521     13818.881 DT     07E0 Rx 8  2F 00 22 40 21 1C 70 1A 
   1522     13820.821 DT     07E0 Rx 8  20 F0 6C FA 28 46 00 22 
   1523     13822.342 DT     07E0 Rx 8  21 BD E8 70 40 40 21 1A 
   1524     13823.838 DT     07E0 Rx 8  22 F0 65 BA 00 BF 92 38 
   1525     13825.199 DT     07E0 Rx 8  23 00 20 00 14 01 40 00 
   1526     13826.636 DT     07E0 Rx 8  24 24 01 40 00 28 01 40 
   1527     13828.095 DT     07E0 Rx 8  25 00 2C 01 40 BC 18 00 
   1528     13829.427 DT     07E0 Rx 8  26 20 00 B5 17 4B 1B 88 
   1529     13830.796 DT     07E0 Rx 8  27 83 B0 05 2B 27 D8 DF 
   1530     13832.058 DT     07E0 Rx 8  28 E8 03 F0 15 26 20 22 
   1531     13833.637 DT     07E0 Rx 8  29 24 03 4F F4 96 71 4F 
   1532     13834.928 DT     07E0 Rx 8  2A F4 A0 62 00 23 AD F8 
